
SetupTitle, DestroySET
PrimitiveTest, I/V Sweep
TestParameter, Context.MainFrame, B1500A
TestParameter, Channel.UnitType, SMU, SMU, SMU
TestParameter, Channel.Unit, SMU4:MP, SMU2:MP, SMU1:MP
TestParameter, Channel.IName, Irow, Icol, Igate
TestParameter, Channel.VName, Vrow, Vcol, Vgate
TestParameter, Channel.Mode, V, V, I
TestParameter, Channel.Func, VAR1, CONST, CONST
TestParameter, Channel.Index, 
TestParameter, Channel.Time, 
TestParameter, Measurement.Port.Unit, SMU4:MP, SMU2:MP, SMU1:MP
TestParameter, Measurement.Port.SeriesResistor, NONE, NONE, NONE
TestParameter, Measurement.Port.Filter, ON, ON, ON
TestParameter, Measurement.Port.OutputVoltageComparison, 0, 0, 0
TestParameter, Measurement.Primary.Locus, Double
TestParameter, Measurement.Primary.Scale, LINEAR
TestParameter, Measurement.Primary.Start, 0
TestParameter, Measurement.Primary.Stop, 3
TestParameter, Measurement.Primary.Step, 0.01
TestParameter, Measurement.Primary.Compliance, 0.005
TestParameter, Measurement.Primary.PowerCompliance, 0
TestParameter, Measurement.Aborting.Condition, CONTINUE AT ANY
TestParameter, Measurement.PostOutput.Value, START
TestParameter, Measurement.PostOutput.Retention, OFF
TestParameter, Measurement.Bias.Source, 0, 0, 1E-13
TestParameter, Measurement.Bias.Compliance, 0.005, 0.1, 10
TestParameter, Measurement.Monitor.Unit, SMU4:MP, SMU2:MP, SMU1:MP
TestParameter, Measurement.Monitor.Adc, HR ADC, HR ADC, HR ADC
TestParameter, Measurement.Monitor.Measurement, Compliance Side, Compliance Side, Compliance Side
TestParameter, Measurement.Monitor.RangingMode, LIMITED, LIMITED, LIMITED
TestParameter, Measurement.Monitor.RangeBoundary, 1nA, 1nA, 2V
TestParameter, Measurement.Monitor.RangeRating, BY FULL RANGE, BY FULL RANGE
TestParameter, Measurement.Monitor.RangeRatingCoeff, 50, 50
TestParameter, Measurement.Timing.Hold, 0
TestParameter, Measurement.Timing.Delay, 0
TestParameter, Measurement.Adc.HighSpeed.Mode, AUTO
TestParameter, Measurement.Adc.HighSpeed.Coeff, 1
TestParameter, Measurement.Adc.HighResolution.AutoZero, OFF
TestParameter, Measurement.Adc.HighResolution.Mode, AUTO
TestParameter, Measurement.Adc.HighResolution.Coeff, 6
TestParameter, Measurement.WaitTime.Source.Coeff, 1
TestParameter, Measurement.WaitTime.Source.Offset, 0
TestParameter, Measurement.WaitTime.Monitor.Coeff, 1
TestParameter, Measurement.WaitTime.Monitor.Offset, 0
TestParameter, Function.User.Name, R1, absIrow, R2
TestParameter, Function.User.Unit, ohm, A, ohm
TestParameter, Function.User.Definition, abs((Vrow-Vgate)/Irow), abs(Irow), abs(Vgate/Irow)
TestParameter, Output.Graph.Enabled, true
TestParameter, Output.Graph.AutoScaling, false
TestParameter, Output.Graph.XAxis.Data, Vrow
TestParameter, Output.Graph.XAxis.Scale, Linear
TestParameter, Output.Graph.XAxis.Left, 0
TestParameter, Output.Graph.XAxis.Right, 1.5
TestParameter, Output.Graph.XAxis.RunTimeAutoScale, true
TestParameter, Output.Graph.YAxis.Data, absIrow, Vgate
TestParameter, Output.Graph.YAxis.Scale, Linear, Linear
TestParameter, Output.Graph.YAxis.Bottom, 0, -0.1
TestParameter, Output.Graph.YAxis.Top, 1, 0.1
TestParameter, Output.Graph.YAxis.Group, , 
TestParameter, Output.Graph.YAxis.RunTimeAutoScale, true, true
TestParameter, Output.List.Data, Vrow, Vcol, R1, R2, Vgate, Irow
TestParameter, AutoAnalysis.Interpolation, false
TestParameter, AutoAnalysis.Line1.Enabled, false
TestParameter, AutoAnalysis.Line1.Type, 1
TestParameter, AutoAnalysis.Line1.Fix, True
TestParameter, AutoAnalysis.Line1.YAxis, 0
TestParameter, AutoAnalysis.Line1.Point1.Type, 0
TestParameter, AutoAnalysis.Line1.Point1.XY.X, 
TestParameter, AutoAnalysis.Line1.Point1.XY.Y, 
TestParameter, AutoAnalysis.Line1.Point1.Data.Var, 
TestParameter, AutoAnalysis.Line1.Point1.Data.Condition, 
TestParameter, AutoAnalysis.Line1.Point1.Data.Start, false
TestParameter, AutoAnalysis.Line1.Point1.Data.StartVar, 
TestParameter, AutoAnalysis.Line1.Point1.Data.StartCondition, 
TestParameter, AutoAnalysis.Line1.Point2.Type, 0
TestParameter, AutoAnalysis.Line1.Point2.XY.X, 
TestParameter, AutoAnalysis.Line1.Point2.XY.Y, 
TestParameter, AutoAnalysis.Line1.Point2.Data.Var, 
TestParameter, AutoAnalysis.Line1.Point2.Data.Condition, 
TestParameter, AutoAnalysis.Line1.Point2.Data.Start, false
TestParameter, AutoAnalysis.Line1.Point2.Data.StartVar, 
TestParameter, AutoAnalysis.Line1.Point2.Data.StartCondition, 
TestParameter, AutoAnalysis.Line1.GradientExpr, 0
TestParameter, AutoAnalysis.Line2.Enabled, false
TestParameter, AutoAnalysis.Line2.Type, 1
TestParameter, AutoAnalysis.Line2.Fix, True
TestParameter, AutoAnalysis.Line2.YAxis, 0
TestParameter, AutoAnalysis.Line2.Point1.Type, 0
TestParameter, AutoAnalysis.Line2.Point1.XY.X, 
TestParameter, AutoAnalysis.Line2.Point1.XY.Y, 
TestParameter, AutoAnalysis.Line2.Point1.Data.Var, 
TestParameter, AutoAnalysis.Line2.Point1.Data.Condition, 
TestParameter, AutoAnalysis.Line2.Point1.Data.Start, false
TestParameter, AutoAnalysis.Line2.Point1.Data.StartVar, 
TestParameter, AutoAnalysis.Line2.Point1.Data.StartCondition, 
TestParameter, AutoAnalysis.Line2.Point2.Type, 0
TestParameter, AutoAnalysis.Line2.Point2.XY.X, 
TestParameter, AutoAnalysis.Line2.Point2.XY.Y, 
TestParameter, AutoAnalysis.Line2.Point2.Data.Var, 
TestParameter, AutoAnalysis.Line2.Point2.Data.Condition, 
TestParameter, AutoAnalysis.Line2.Point2.Data.Start, false
TestParameter, AutoAnalysis.Line2.Point2.Data.StartVar, 
TestParameter, AutoAnalysis.Line2.Point2.Data.StartCondition, 
TestParameter, AutoAnalysis.Line2.GradientExpr, 0
TestParameter, AutoAnalysis.Marker.Enabled, false
TestParameter, AutoAnalysis.Marker.Data.Var, 
TestParameter, AutoAnalysis.Marker.Data.Condition, 
TestParameter, AutoAnalysis.Marker.Data.Start, false
TestParameter, AutoAnalysis.Marker.Data.StartVar, 
TestParameter, AutoAnalysis.Marker.Data.StartCondition, 
MetaData, TestRecord.EntryPoint, true
MetaData, TestRecord.RecordTime, 03/21/2019 19:22:02
MetaData, TestRecord.TestTarget, 3,4
MetaData, TestRecord.IterationIndex, 1
MetaData, TestRecord.Preservation, true
MetaData, TestRecord.Flag, 
MetaData, TestRecord.Remarks, 
MetaData, TestRecord.LinkKey, 05bdf670-599d-44c1-bb9c-a9a5d2265839
Dimension1, 602, 602, 602, 602, 602, 602, 602
Dimension2, 1, 1, 1, 1, 1, 1, 1
DataName, Vrow, Vcol, Irow, Vgate, R1, absIrow, R2
DataValue, 0, 0, 9.2112E-09, 3.9999999999999996E-05, 4342.5395171096052, 9.2112E-09, 4342.5395171096052
DataValue, 0.01, 0, 8.9646E-07, 0.00019999999999999998, 10931.887646966959, 8.9646E-07, 223.09974789728486
DataValue, 0.02, 0, 1.8055000000000001E-06, 0.00043999999999999996, 10833.564109664912, 1.8055000000000001E-06, 243.69980614788145
DataValue, 0.03, 0, 2.6876000000000003E-06, 0.00056, 10954.011013543679, 2.6876000000000003E-06, 208.36433993153739
DataValue, 0.04, 0, 3.6019E-06, 0.00083999999999999993, 10872.039756795024, 3.6019E-06, 233.21025014575636
DataValue, 0.05, 0, 4.5467000000000009E-06, 0.00108, 10759.451910176611, 4.5467000000000009E-06, 237.53491543317128
DataValue, 0.06, 0, 5.4809E-06, 0.00124, 10720.867010892371, 5.4809E-06, 226.24021602291595
DataValue, 0.07, 0, 6.4788000000000005E-06, 0.0014399999999999999, 10582.206581465704, 6.4788000000000005E-06, 222.2633821077977
DataValue, 0.08, 0, 7.4340000000000012E-06, 0.0016799999999999999, 10535.37799300511, 7.4340000000000012E-06, 225.98870056497171
DataValue, 0.09, 0, 8.4756E-06, 0.00188, 10396.904053990276, 8.4756E-06, 221.81320496484022
DataValue, 0.1, 0, 9.4513E-06, 0.00216, 10352.0150667104, 9.4513E-06, 228.53998920783383
DataValue, 0.11, 0, 1.0505600000000002E-05, 0.0023599999999999997, 10245.964057264695, 1.0505600000000002E-05, 224.64209564422777
DataValue, 0.12, 0, 1.1494E-05, 0.0025199999999999997, 10220.984861666957, 1.1494E-05, 219.24482338611446
DataValue, 0.13, 0, 1.2596000000000001E-05, 0.00284, 10095.268339155286, 1.2596000000000001E-05, 225.46840266751349
DataValue, 0.14, 0, 1.376E-05, 0.00312, 9947.67441860465, 1.376E-05, 226.74418604651163
DataValue, 0.15, 0, 1.4956E-05, 0.00332, 9807.4351430863862, 1.4956E-05, 221.98448783097084
DataValue, 0.16, 0, 1.6244E-05, 0.00356, 9630.6328490519572, 1.6244E-05, 219.15784289583846
DataValue, 0.17, 0, 1.741E-05, 0.0038, 9546.23779437105, 1.741E-05, 218.2653647329121
DataValue, 0.18, 0, 1.8514E-05, 0.0041199999999999995, 9499.8379604623515, 1.8514E-05, 222.53429836880198
DataValue, 0.19, 0, 1.9702000000000002E-05, 0.00432, 9424.42391635367, 1.9702000000000002E-05, 219.2670794843163
DataValue, 0.2, 0, 2.1152E-05, 0.0046, 9237.8971255673223, 2.1152E-05, 217.47352496217852
DataValue, 0.21, 0, 2.267E-05, 0.0050399999999999993, 9041.0233789148642, 2.267E-05, 222.32024702249666
DataValue, 0.22, 0, 2.3646E-05, 0.00524, 9082.2972172883365, 2.3646E-05, 221.60196227691787
DataValue, 0.23, 0, 2.521E-05, 0.00564, 8899.6429988099953, 2.521E-05, 223.72074573581912
DataValue, 0.24, 0, 2.6596E-05, 0.00596, 8799.81952173259, 2.6596E-05, 224.09384869905247
DataValue, 0.25, 0, 2.8058E-05, 0.00624, 8687.7182978116762, 2.8058E-05, 222.39646446646231
DataValue, 0.26, 0, 2.9454E-05, 0.00656, 8604.6037889590552, 2.9454E-05, 222.72017383037957
DataValue, 0.27, 0, 3.1252E-05, 0.00692, 8418.0212466402172, 3.1252E-05, 221.42582874696021
DataValue, 0.28, 0, 3.277E-05, 0.00724, 8323.4665852914259, 3.277E-05, 220.93378089716205
DataValue, 0.29, 0, 3.4616E-05, 0.0076399999999999992, 8156.9216547261376, 3.4616E-05, 220.70718742777902
DataValue, 0.3, 0, 3.6546E-05, 0.00804, 7988.8359875225742, 3.6546E-05, 219.99671646691843
DataValue, 0.31, 0, 3.8102E-05, 0.0084, 7915.5949818907138, 3.8102E-05, 220.46086819589522
DataValue, 0.32, 0, 4.0188E-05, 0.0088399999999999989, 7742.6097342490293, 4.0188E-05, 219.96615905245344
DataValue, 0.33, 0, 4.1910000000000004E-05, 0.00928, 7652.5888809353373, 4.1910000000000004E-05, 221.42686709615842
DataValue, 0.34, 0, 4.3966E-05, 0.00968, 7513.0782877678212, 4.3966E-05, 220.17013146522311
DataValue, 0.35000000000000003, 0, 4.5104E-05, 0.010079999999999999, 7536.3604114934387, 4.5104E-05, 223.48350478893221
DataValue, 0.36, 0, 4.7046E-05, 0.01036, 7431.8751859881813, 4.7046E-05, 220.21000722696931
DataValue, 0.37, 0, 4.919E-05, 0.01092, 7299.8576946533849, 4.919E-05, 221.99634071965843
DataValue, 0.38, 0, 5.1272E-05, 0.01132, 7190.6693711967546, 5.1272E-05, 220.78327352161026
DataValue, 0.39, 0, 5.3448E-05, 0.01188, 7074.5397395599466, 5.3448E-05, 222.27211495285135
DataValue, 0.4, 0, 5.5654E-05, 0.01228, 6966.61515794013, 5.5654E-05, 220.64900995436085
DataValue, 0.41000000000000003, 0, 5.8088000000000004E-05, 0.012879999999999999, 6836.5238947803336, 5.8088000000000004E-05, 221.73254372675936
DataValue, 0.42, 0, 6.0174000000000004E-05, 0.01324, 6759.730115996942, 6.0174000000000004E-05, 220.02858377372286
DataValue, 0.43, 0, 6.2358E-05, 0.0138, 6674.3641553609805, 6.2358E-05, 221.30279996151253
DataValue, 0.44, 0, 6.4844E-05, 0.01444, 6562.827709579914, 6.4844E-05, 222.68829806921224
DataValue, 0.45, 0, 6.736E-05, 0.014839999999999999, 6460.2137767220893, 6.736E-05, 220.30878859857478
DataValue, 0.46, 0, 6.9952E-05, 0.015479999999999999, 6354.64318389753, 6.9952E-05, 221.29460201280878
DataValue, 0.47000000000000003, 0, 7.2558E-05, 0.016, 6257.0633148653487, 7.2558E-05, 220.51324457675239
DataValue, 0.48, 0, 7.5644E-05, 0.01668, 6125.0066099095766, 7.5644E-05, 220.50658346993814
DataValue, 0.49, 0, 7.8342E-05, 0.01728, 6034.05580659161, 7.8342E-05, 220.57134104311862
DataValue, 0.5, 0, 8.1196E-05, 0.01796, 5936.7456524951967, 8.1196E-05, 221.19316222474015
DataValue, 0.51, 0, 8.4186E-05, 0.01856, 5837.550186491816, 8.4186E-05, 220.46421020122111
DataValue, 0.52, 0, 8.7122E-05, 0.01924, 5747.80193292165, 8.7122E-05, 220.83974197102913
DataValue, 0.53, 0, 9.0390000000000007E-05, 0.01996, 5642.6595862374161, 9.0390000000000007E-05, 220.8208872662905
DataValue, 0.54, 0, 9.3656E-05, 0.02068, 5544.9730930212691, 9.3656E-05, 220.8080635517212
DataValue, 0.55, 0, 9.663E-05, 0.02136, 5470.7647728448719, 9.663E-05, 221.049363551692
DataValue, 0.56, 0, 0.00010014, 0.02204, 5372.0790892750156, 0.00010014, 220.09187138006791
DataValue, 0.57000000000000006, 0, 0.00010316000000000001, 0.02284, 5303.9937960449788, 0.00010316000000000001, 221.403644823575
DataValue, 0.58, 0, 0.000107132, 0.023639999999999998, 5193.2195795840644, 0.000107132, 220.66236045252583
DataValue, 0.59, 0, 0.000111204, 0.02452, 5085.0688824143017, 0.000111204, 220.49566562353871
DataValue, 0.6, 0, 0.00011501, 0.0254, 4996.0872967568039, 0.00011501, 220.85036083818798
DataValue, 0.61, 0, 0.00011920000000000001, 0.02624, 4897.31543624161, 0.00011920000000000001, 220.13422818791943
DataValue, 0.62, 0, 0.00012304000000000002, 0.0272, 4817.9453836150842, 0.00012304000000000002, 221.06631989596875
DataValue, 0.63, 0, 0.00012736, 0.028159999999999998, 4725.5025125628144, 0.00012736, 221.10552763819092
DataValue, 0.64, 0, 0.00013178000000000002, 0.029079999999999998, 4635.9083320685986, 0.00013178000000000002, 220.67081499468807
DataValue, 0.65, 0, 0.00013626, 0.030039999999999997, 4549.8312050491713, 0.00013626, 220.460883604873
DataValue, 0.66, 0, 0.00014022, 0.03116, 4484.666951932677, 0.00014022, 222.2222222222222
DataValue, 0.67, 0, 0.00014514, 0.03204, 4395.480225988701, 0.00014514, 220.75237701529557
DataValue, 0.68, 0, 0.00015028, 0.03312, 4304.498269896194, 0.00015028, 220.38860793186049
DataValue, 0.69000000000000006, 0, 0.00015528000000000002, 0.0344, 4222.0504894384339, 0.00015528000000000002, 221.53529108706849
DataValue, 0.70000000000000007, 0, 0.00016068, 0.03516, 4137.6649240726911, 0.00016068, 218.82001493651976
DataValue, 0.71, 0, 0.00016464000000000002, 0.03648, 4090.8649173955291, 0.00016464000000000002, 221.57434402332356
DataValue, 0.72, 0, 0.00017064, 0.037559999999999996, 3999.2967651195495, 0.00017064, 220.11251758087198
DataValue, 0.73, 0, 0.00017546, 0.03888, 3938.9034537786388, 0.00017546, 221.58896614613016
DataValue, 0.74, 0, 0.0001822, 0.03992, 3842.371020856202, 0.0001822, 219.09989023051588
DataValue, 0.75, 0, 0.00018652000000000002, 0.04124, 3799.91421831439, 0.00018652000000000002, 221.10229466009002
DataValue, 0.76, 0, 0.00019322000000000002, 0.042519999999999995, 3713.2801987371904, 0.00019322000000000002, 220.06003519304414
DataValue, 0.77, 0, 0.00019942, 0.04428, 3639.1535452813159, 0.00019942, 222.04392738942934
DataValue, 0.78, 0, 0.00020632000000000002, 0.04548, 3560.1008142690966, 0.00020632000000000002, 220.4342768514928
DataValue, 0.79, 0, 0.00021510000000000002, 0.04756, 3451.6039051603902, 0.00021510000000000002, 221.10646211064619
DataValue, 0.8, 0, 0.00022086000000000002, 0.048279999999999997, 3403.6040930906456, 0.00022086000000000002, 218.60001811102052
DataValue, 0.81, 0, 0.00022762000000000002, 0.05044, 3336.9651173007642, 0.00022762000000000002, 221.59739917406202
DataValue, 0.82000000000000006, 0, 0.00023640000000000003, 0.05196, 3248.9001692047377, 0.00023640000000000003, 219.79695431472078
DataValue, 0.83000000000000007, 0, 0.00024656, 0.05372, 3148.4425697598967, 0.00024656, 217.87800129785853
DataValue, 0.84, 0, 0.00025166, 0.05592, 3115.6322021775409, 0.00025166, 222.20456171024395
DataValue, 0.85, 0, 0.00025922, 0.05728, 3058.0973690301676, 0.00025922, 220.97060412005246
DataValue, 0.86, 0, 0.00026690000000000004, 0.0588, 3001.8733608092916, 0.00026690000000000004, 220.30723117272382
DataValue, 0.87, 0, 0.00027788000000000004, 0.06096, 2911.4725780912618, 0.00027788000000000004, 219.37526990067653
DataValue, 0.88, 0, 0.00028428000000000004, 0.062079999999999996, 2877.1633600675386, 0.00028428000000000004, 218.37624876881944
DataValue, 0.89, 0, 0.00029268, 0.06428, 2821.2382123821235, 0.00029268, 219.62552958862921
DataValue, 0.9, 0, 0.00030482, 0.06676, 2733.547667475887, 0.00030482, 219.01450036086868
DataValue, 0.91, 0, 0.00031268, 0.0686, 2690.9300243059997, 0.00031268, 219.39362926954073
DataValue, 0.92, 0, 0.00031906, 0.07124, 2660.1893060866296, 0.00031906, 223.28088760734656
DataValue, 0.93, 0, 0.00032692, 0.072439999999999991, 2623.149394347241, 0.00032692, 221.58326196011251
DataValue, 0.94000000000000006, 0, 0.00033534, 0.07404, 2582.3343472296774, 0.00033534, 220.79083914832705
DataValue, 0.95000000000000007, 0, 0.0003467, 0.076159999999999992, 2520.4499567349294, 0.0003467, 219.67118546293622
DataValue, 0.96, 0, 0.0003568, 0.07891999999999999, 2469.3946188340806, 0.0003568, 221.18834080717485
DataValue, 0.97, 0, 0.00036458000000000004, 0.0808, 2438.9708705908165, 0.00036458000000000004, 221.62488342750558
DataValue, 0.98, 0, 0.0003779, 0.0832, 2373.114580576872, 0.0003779, 220.16406456734583
DataValue, 0.99, 0, 0.00038986, 0.0866, 2317.2420869029906, 0.00038986, 222.13102139229466
DataValue, 1, 0, 0.00040178, 0.08884, 2267.8082532729354, 0.00040178, 221.11603365025636
DataValue, 1.01, 0, 0.0004129, 0.090479999999999991, 2226.9798982804555, 0.0004129, 219.13296197626542
DataValue, 1.02, 0, 0.00042028000000000004, 0.09287999999999999, 2205.9579328067002, 0.00042028000000000004, 220.99552679166266
DataValue, 1.03, 0, 0.00043244, 0.095, 2162.1496623809085, 0.00043244, 219.68365553602811
DataValue, 1.04, 0, 0.00044540000000000004, 0.098999999999999991, 2112.7076784912438, 0.00044540000000000004, 222.27211495285133
DataValue, 1.05, 0, 0.00045686, 0.1006, 2078.098323337565, 0.00045686, 220.19874797530972
DataValue, 1.06, 0, 0.00046756, 0.10311999999999999, 2046.5394815638636, 0.00046756, 220.54923432286762
DataValue, 1.07, 0, 0.00048266000000000004, 0.10588, 1997.5137778146107, 0.00048266000000000004, 219.36767082418263
DataValue, 1.08, 0, 0.00049424000000000007, 0.10804, 1966.5749433473613, 0.00049424000000000007, 218.5982518614438
DataValue, 1.09, 0, 0.00051212, 0.11127999999999999, 1911.114582519722, 0.00051212, 217.29282199484493
DataValue, 1.1, 0, 0.00052446, 0.11476, 1878.5798726308967, 0.00052446, 218.81554360675742
DataValue, 1.11, 0, 0.00053166, 0.11803999999999999, 1865.7788812398903, 0.00053166, 222.02159274724448
DataValue, 1.12, 0, 0.00054858, 0.12088, 1821.2840424368371, 0.00054858, 220.35072368660906
DataValue, 1.1300000000000001, 0, 0.00056334000000000006, 0.12628, 1781.7303937231513, 0.00056334000000000006, 224.16302765647743
DataValue, 1.1400000000000001, 0, 0.00057778000000000007, 0.1268, 1753.6086399667693, 0.00057778000000000007, 219.46069438194465
DataValue, 1.1500000000000001, 0, 0.00059146, 0.12783999999999998, 1728.1980184627871, 0.00059146, 216.14310350657689
DataValue, 1.16, 0, 0.00060926, 0.1358, 1681.0557069231527, 0.00060926, 222.893346026327
DataValue, 1.17, 0, 0.00063786000000000008, 0.13996, 1614.8371115918849, 0.00063786000000000008, 219.42118960273413
DataValue, 1.18, 0, 0.00065886, 0.14215999999999998, 1575.2056582582034, 0.00065886, 215.76662720456542
DataValue, 1.19, 0, 0.00066126, 0.14523999999999998, 1579.9534222544837, 0.00066126, 219.64129086894712
DataValue, 1.2, 0, 0.00068518000000000008, 0.1478, 1535.65486441519, 0.00068518000000000008, 215.70974050614433
DataValue, 1.21, 0, 0.0006926800000000001, 0.15176, 1527.7473003407056, 0.0006926800000000001, 219.09106658197146
DataValue, 1.22, 0, 0.00070984, 0.15547999999999998, 1499.6618956384536, 0.00070984, 219.03527555505463
DataValue, 1.23, 0, 0.00072308000000000008, 0.15832, 1482.1043314709298, 0.00072308000000000008, 218.95225977761794
DataValue, 1.24, 0, 0.0007515200000000001, 0.16008, 1436.98105173515, 0.0007515200000000001, 213.00830317223756
DataValue, 1.25, 0, 0.00075414, 0.16907999999999998, 1433.3147691410084, 0.00075414, 224.20240273689231
DataValue, 1.26, 0, 0.00078316000000000008, 0.17407999999999999, 1386.5876704632512, 0.00078316000000000008, 222.27897236835381
DataValue, 1.27, 0, 0.00081388, 0.17712, 1342.802378729051, 0.00081388, 217.62421978670074
DataValue, 1.28, 0, 0.0008444800000000001, 0.18328, 1298.6926866237209, 0.0008444800000000001, 217.032967032967
