
SetupTitle, DestroySET
PrimitiveTest, I/V Sweep
TestParameter, Context.MainFrame, B1500A
TestParameter, Channel.UnitType, SMU, SMU, SMU
TestParameter, Channel.Unit, SMU4:MP, SMU2:MP, SMU1:MP
TestParameter, Channel.IName, Irow, Icol, Igate
TestParameter, Channel.VName, Vrow, Vcol, Vgate
TestParameter, Channel.Mode, V, V, I
TestParameter, Channel.Func, VAR1, CONST, CONST
TestParameter, Channel.Index, 
TestParameter, Channel.Time, 
TestParameter, Measurement.Port.Unit, SMU4:MP, SMU2:MP, SMU1:MP
TestParameter, Measurement.Port.SeriesResistor, NONE, NONE, NONE
TestParameter, Measurement.Port.Filter, ON, ON, ON
TestParameter, Measurement.Port.OutputVoltageComparison, 0, 0, 0
TestParameter, Measurement.Primary.Locus, Double
TestParameter, Measurement.Primary.Scale, LINEAR
TestParameter, Measurement.Primary.Start, 0
TestParameter, Measurement.Primary.Stop, 3
TestParameter, Measurement.Primary.Step, 0.01
TestParameter, Measurement.Primary.Compliance, 0.005
TestParameter, Measurement.Primary.PowerCompliance, 0
TestParameter, Measurement.Aborting.Condition, CONTINUE AT ANY
TestParameter, Measurement.PostOutput.Value, START
TestParameter, Measurement.PostOutput.Retention, OFF
TestParameter, Measurement.Bias.Source, 0, 0, 1E-13
TestParameter, Measurement.Bias.Compliance, 0.005, 0.1, 10
TestParameter, Measurement.Monitor.Unit, SMU4:MP, SMU2:MP, SMU1:MP
TestParameter, Measurement.Monitor.Adc, HR ADC, HR ADC, HR ADC
TestParameter, Measurement.Monitor.Measurement, Compliance Side, Compliance Side, Compliance Side
TestParameter, Measurement.Monitor.RangingMode, LIMITED, LIMITED, LIMITED
TestParameter, Measurement.Monitor.RangeBoundary, 1nA, 1nA, 2V
TestParameter, Measurement.Monitor.RangeRating, BY FULL RANGE, BY FULL RANGE
TestParameter, Measurement.Monitor.RangeRatingCoeff, 50, 50
TestParameter, Measurement.Timing.Hold, 0
TestParameter, Measurement.Timing.Delay, 0
TestParameter, Measurement.Adc.HighSpeed.Mode, AUTO
TestParameter, Measurement.Adc.HighSpeed.Coeff, 1
TestParameter, Measurement.Adc.HighResolution.AutoZero, OFF
TestParameter, Measurement.Adc.HighResolution.Mode, AUTO
TestParameter, Measurement.Adc.HighResolution.Coeff, 6
TestParameter, Measurement.WaitTime.Source.Coeff, 1
TestParameter, Measurement.WaitTime.Source.Offset, 0
TestParameter, Measurement.WaitTime.Monitor.Coeff, 1
TestParameter, Measurement.WaitTime.Monitor.Offset, 0
TestParameter, Function.User.Name, R1, absIrow, R2
TestParameter, Function.User.Unit, ohm, A, ohm
TestParameter, Function.User.Definition, abs((Vrow-Vgate)/Irow), abs(Irow), abs(Vgate/Irow)
TestParameter, Output.Graph.Enabled, true
TestParameter, Output.Graph.AutoScaling, false
TestParameter, Output.Graph.XAxis.Data, Vrow
TestParameter, Output.Graph.XAxis.Scale, Linear
TestParameter, Output.Graph.XAxis.Left, 0
TestParameter, Output.Graph.XAxis.Right, 1.5
TestParameter, Output.Graph.XAxis.RunTimeAutoScale, true
TestParameter, Output.Graph.YAxis.Data, absIrow, Vgate
TestParameter, Output.Graph.YAxis.Scale, Linear, Linear
TestParameter, Output.Graph.YAxis.Bottom, 0, -0.1
TestParameter, Output.Graph.YAxis.Top, 1, 0.1
TestParameter, Output.Graph.YAxis.Group, , 
TestParameter, Output.Graph.YAxis.RunTimeAutoScale, true, true
TestParameter, Output.List.Data, Vrow, Vcol, R1, R2, Vgate, Irow
TestParameter, AutoAnalysis.Interpolation, false
TestParameter, AutoAnalysis.Line1.Enabled, false
TestParameter, AutoAnalysis.Line1.Type, 1
TestParameter, AutoAnalysis.Line1.Fix, True
TestParameter, AutoAnalysis.Line1.YAxis, 0
TestParameter, AutoAnalysis.Line1.Point1.Type, 0
TestParameter, AutoAnalysis.Line1.Point1.XY.X, 
TestParameter, AutoAnalysis.Line1.Point1.XY.Y, 
TestParameter, AutoAnalysis.Line1.Point1.Data.Var, 
TestParameter, AutoAnalysis.Line1.Point1.Data.Condition, 
TestParameter, AutoAnalysis.Line1.Point1.Data.Start, false
TestParameter, AutoAnalysis.Line1.Point1.Data.StartVar, 
TestParameter, AutoAnalysis.Line1.Point1.Data.StartCondition, 
TestParameter, AutoAnalysis.Line1.Point2.Type, 0
TestParameter, AutoAnalysis.Line1.Point2.XY.X, 
TestParameter, AutoAnalysis.Line1.Point2.XY.Y, 
TestParameter, AutoAnalysis.Line1.Point2.Data.Var, 
TestParameter, AutoAnalysis.Line1.Point2.Data.Condition, 
TestParameter, AutoAnalysis.Line1.Point2.Data.Start, false
TestParameter, AutoAnalysis.Line1.Point2.Data.StartVar, 
TestParameter, AutoAnalysis.Line1.Point2.Data.StartCondition, 
TestParameter, AutoAnalysis.Line1.GradientExpr, 0
TestParameter, AutoAnalysis.Line2.Enabled, false
TestParameter, AutoAnalysis.Line2.Type, 1
TestParameter, AutoAnalysis.Line2.Fix, True
TestParameter, AutoAnalysis.Line2.YAxis, 0
TestParameter, AutoAnalysis.Line2.Point1.Type, 0
TestParameter, AutoAnalysis.Line2.Point1.XY.X, 
TestParameter, AutoAnalysis.Line2.Point1.XY.Y, 
TestParameter, AutoAnalysis.Line2.Point1.Data.Var, 
TestParameter, AutoAnalysis.Line2.Point1.Data.Condition, 
TestParameter, AutoAnalysis.Line2.Point1.Data.Start, false
TestParameter, AutoAnalysis.Line2.Point1.Data.StartVar, 
TestParameter, AutoAnalysis.Line2.Point1.Data.StartCondition, 
TestParameter, AutoAnalysis.Line2.Point2.Type, 0
TestParameter, AutoAnalysis.Line2.Point2.XY.X, 
TestParameter, AutoAnalysis.Line2.Point2.XY.Y, 
TestParameter, AutoAnalysis.Line2.Point2.Data.Var, 
TestParameter, AutoAnalysis.Line2.Point2.Data.Condition, 
TestParameter, AutoAnalysis.Line2.Point2.Data.Start, false
TestParameter, AutoAnalysis.Line2.Point2.Data.StartVar, 
TestParameter, AutoAnalysis.Line2.Point2.Data.StartCondition, 
TestParameter, AutoAnalysis.Line2.GradientExpr, 0
TestParameter, AutoAnalysis.Marker.Enabled, false
TestParameter, AutoAnalysis.Marker.Data.Var, 
TestParameter, AutoAnalysis.Marker.Data.Condition, 
TestParameter, AutoAnalysis.Marker.Data.Start, false
TestParameter, AutoAnalysis.Marker.Data.StartVar, 
TestParameter, AutoAnalysis.Marker.Data.StartCondition, 
MetaData, TestRecord.EntryPoint, true
MetaData, TestRecord.RecordTime, 03/21/2019 19:28:42
MetaData, TestRecord.TestTarget, 3,4
MetaData, TestRecord.IterationIndex, 1
MetaData, TestRecord.Preservation, true
MetaData, TestRecord.Flag, 
MetaData, TestRecord.Remarks, 
MetaData, TestRecord.LinkKey, 700ef6ea-c030-444a-8720-853a288cd5e5
Dimension1, 602, 602, 602, 602, 602, 602, 602
Dimension2, 1, 1, 1, 1, 1, 1, 1
DataName, Vrow, Vcol, Irow, Vgate, R1, absIrow, R2
DataValue, 0, 0, 1.0096199999999999E-08, 3.9999999999999996E-05, 3961.8866504229313, 1.0096199999999999E-08, 3961.8866504229313
DataValue, 0.01, 0, 8.8258E-07, 0.0020399999999999997, 9019.0124407985677, 8.8258E-07, 2311.4051983956124
DataValue, 0.02, 0, 1.7356000000000002E-06, 0.004, 9218.7139893984786, 1.7356000000000002E-06, 2304.6784973496196
DataValue, 0.03, 0, 2.5972000000000003E-06, 0.00592, 9271.5231788079454, 2.5972000000000003E-06, 2279.3777914677344
DataValue, 0.04, 0, 3.4915000000000004E-06, 0.00848, 9027.6385507661453, 3.4915000000000004E-06, 2428.755549190892
DataValue, 0.05, 0, 4.3643000000000007E-06, 0.00996, 9174.43805421259, 4.3643000000000007E-06, 2282.1529225763579
DataValue, 0.06, 0, 5.2803000000000009E-06, 0.012079999999999999, 9075.2419370111529, 5.2803000000000009E-06, 2287.7488021513923
DataValue, 0.07, 0, 6.1853000000000007E-06, 0.014199999999999999, 9021.3894233101073, 6.1853000000000007E-06, 2295.7657672222845
DataValue, 0.08, 0, 7.1422000000000008E-06, 0.016319999999999998, 8916.0202738651951, 7.1422000000000008E-06, 2285.0102209403258
DataValue, 0.09, 0, 8.0415000000000009E-06, 0.018439999999999998, 8898.83728160169, 8.0415000000000009E-06, 2293.1045203009385
DataValue, 0.1, 0, 9.012700000000001E-06, 0.02068, 8800.9142654254538, 9.012700000000001E-06, 2294.5399269919112
DataValue, 0.11, 0, 9.9900000000000009E-06, 0.022959999999999998, 8712.7127127127133, 9.9900000000000009E-06, 2298.2982982982981
DataValue, 0.12, 0, 1.13203E-05, 0.02516, 8377.86984443875, 1.13203E-05, 2222.5559393302296
DataValue, 0.13, 0, 1.1972E-05, 0.02744, 8566.6555295689959, 1.1972E-05, 2292.0147009689276
DataValue, 0.14, 0, 1.3064E-05, 0.03032, 8395.5909369259043, 1.3064E-05, 2320.8818126148194
DataValue, 0.15, 0, 1.415E-05, 0.0324, 8310.95406360424, 1.415E-05, 2289.7526501766783
DataValue, 0.16, 0, 1.533E-05, 0.034999999999999996, 8153.9465101108935, 1.533E-05, 2283.10502283105
DataValue, 0.17, 0, 1.6418E-05, 0.03772, 8057.01059812401, 1.6418E-05, 2297.4783773906684
DataValue, 0.18, 0, 1.7746E-05, 0.040479999999999995, 7862.0534204891246, 1.7746E-05, 2281.077425898794
DataValue, 0.19, 0, 1.8844E-05, 0.043039999999999995, 7798.7688388877095, 1.8844E-05, 2284.0161324559535
DataValue, 0.2, 0, 2.0514E-05, 0.04548, 7532.4168860290538, 2.0514E-05, 2217.0225212050304
DataValue, 0.21, 0, 2.1224000000000002E-05, 0.04844, 7612.1372031662249, 2.1224000000000002E-05, 2282.3218997361473
DataValue, 0.22, 0, 2.2344E-05, 0.050879999999999995, 7568.92230576441, 2.2344E-05, 2277.1213748657356
DataValue, 0.23, 0, 2.3512E-05, 0.053559999999999996, 7504.2531473290237, 2.3512E-05, 2277.9857094249742
DataValue, 0.24, 0, 2.529E-05, 0.056999999999999995, 7236.0616844602609, 2.529E-05, 2253.8552787663107
DataValue, 0.25, 0, 2.6338E-05, 0.05984, 7219.9863315361827, 2.6338E-05, 2272.0024299491229
DataValue, 0.26, 0, 2.7746E-05, 0.06268, 7111.6557341598782, 2.7746E-05, 2259.0643696388665
DataValue, 0.27, 0, 2.9034E-05, 0.06584, 7031.7558724254322, 2.9034E-05, 2267.6861610525589
DataValue, 0.28, 0, 3.045E-05, 0.0688, 6935.9605911330054, 3.045E-05, 2259.44170771757
DataValue, 0.29, 0, 3.2168E-05, 0.072759999999999991, 6753.2952001989552, 3.2168E-05, 2261.8751554339715
DataValue, 0.3, 0, 3.3364E-05, 0.07576, 6721.0166646685047, 3.3364E-05, 2270.7109459297444
DataValue, 0.31, 0, 3.4992E-05, 0.08004, 6571.7878372199357, 3.4992E-05, 2287.3799725651579
DataValue, 0.32, 0, 3.6744E-05, 0.08312, 6446.7668190725017, 3.6744E-05, 2262.1380361419551
DataValue, 0.33, 0, 3.858E-05, 0.08652, 6311.0419906687412, 3.858E-05, 2242.6127527216172
DataValue, 0.34, 0, 4.0546E-05, 0.090519999999999989, 6153.0113944655459, 4.0546E-05, 2232.5260198293295
DataValue, 0.35000000000000003, 0, 4.1932000000000004E-05, 0.093839999999999993, 6108.9382810264242, 4.1932000000000004E-05, 2237.90899551655
DataValue, 0.36, 0, 4.33E-05, 0.097679999999999989, 6058.1986143187059, 4.33E-05, 2255.8891454965355
DataValue, 0.37, 0, 4.533E-05, 0.10156, 5921.9060225016547, 4.533E-05, 2240.4588572689167
DataValue, 0.38, 0, 4.7094E-05, 0.10615999999999999, 5814.7534717798453, 4.7094E-05, 2254.2149743067057
DataValue, 0.39, 0, 4.9452E-05, 0.11036, 5654.7763487826578, 4.9452E-05, 2231.6589824476259
DataValue, 0.4, 0, 5.109E-05, 0.11372, 5603.4449011548259, 5.109E-05, 2225.8759052652181
DataValue, 0.41000000000000003, 0, 5.2828E-05, 0.1186, 5516.0142348754453, 5.2828E-05, 2245.021579465435
DataValue, 0.42, 0, 5.4970000000000004E-05, 0.12359999999999999, 5392.032017464071, 5.4970000000000004E-05, 2248.499181371657
DataValue, 0.43, 0, 5.7480000000000005E-05, 0.1276, 5260.9603340292269, 5.7480000000000005E-05, 2219.9025748086287
DataValue, 0.44, 0, 5.9722E-05, 0.1324, 5150.5307926727164, 5.9722E-05, 2216.9384816315592
DataValue, 0.45, 0, 6.1864E-05, 0.1364, 5069.1840165524372, 6.1864E-05, 2204.8364153627308
DataValue, 0.46, 0, 6.4074E-05, 0.14107999999999998, 4977.3699160345859, 6.4074E-05, 2201.8291350625836
DataValue, 0.47000000000000003, 0, 6.6230000000000008E-05, 0.14504, 4906.53782273894, 6.6230000000000008E-05, 2189.9441340782118
DataValue, 0.48, 0, 6.8296E-05, 0.14928, 4842.4505095466793, 6.8296E-05, 2185.7795478505332
DataValue, 0.49, 0, 7.0414000000000007E-05, 0.15339999999999998, 4780.29937228392, 7.0414000000000007E-05, 2178.5440395375913
DataValue, 0.5, 0, 7.2956E-05, 0.15852, 4680.6294204726137, 7.2956E-05, 2172.8164921322441
DataValue, 0.51, 0, 7.5222E-05, 0.16352, 4606.0992794661133, 7.5222E-05, 2173.8321235808671
DataValue, 0.52, 0, 7.7318000000000007E-05, 0.16735999999999998, 4560.904317235314, 7.7318000000000007E-05, 2164.5671124447085
DataValue, 0.53, 0, 7.966E-05, 0.17188, 4495.6063268892794, 7.966E-05, 2157.6700979161433
DataValue, 0.54, 0, 8.3438E-05, 0.17904, 4326.0864354370915, 8.3438E-05, 2145.7848941729189
DataValue, 0.55, 0, 8.5956E-05, 0.18395999999999999, 4258.4578156266, 8.5956E-05, 2140.164735446042
DataValue, 0.56, 0, 8.826E-05, 0.18852, 4208.9281667799687, 8.826E-05, 2135.9619306594154
DataValue, 0.57000000000000006, 0, 9.1134E-05, 0.19516, 4113.0642789738195, 9.1134E-05, 2141.4620229552088
DataValue, 0.58, 0, 9.4206E-05, 0.19996, 4034.1379529966239, 9.4206E-05, 2122.5824257478293
DataValue, 0.59, 0, 9.6842E-05, 0.20564, 3968.9390966729306, 9.6842E-05, 2123.4588298465537
DataValue, 0.6, 0, 0.000100048, 0.21056, 3892.531584839277, 0.000100048, 2104.5897968974891
DataValue, 0.61, 0, 0.000102428, 0.21664, 3840.356152614519, 0.000102428, 2115.0466669270122
DataValue, 0.62, 0, 0.000106624, 0.2224, 3728.9915966386557, 0.000106624, 2085.8343337334932
DataValue, 0.63, 0, 0.000110352, 0.22344, 3684.2105263157896, 0.000110352, 2024.793388429752
DataValue, 0.64, 0, 0.000111402, 0.23024, 3678.2104450548463, 0.000111402, 2066.7492504622896
DataValue, 0.65, 0, 0.00011278400000000001, 0.23343999999999998, 3693.4316924386439, 0.00011278400000000001, 2069.7971343452969
DataValue, 0.66, 0, 0.00011910000000000001, 0.24544, 3480.7724601175482, 0.00011910000000000001, 2060.7892527287991
DataValue, 0.67, 0, 0.0001229, 0.25096, 3409.6013018714402, 0.0001229, 2041.9853539462979
DataValue, 0.68, 0, 0.00012382000000000002, 0.2566, 3419.47989016314, 0.00012382000000000002, 2072.3631077370374
DataValue, 0.69000000000000006, 0, 0.00012790000000000002, 0.2622, 3344.8006254886632, 0.00012790000000000002, 2050.0390930414383
DataValue, 0.70000000000000007, 0, 0.00013116, 0.26448, 3320.5245501677346, 0.00013116, 2016.4684354986275
DataValue, 0.71, 0, 0.00013364, 0.26936, 3297.2164022747679, 0.00013364, 2015.5642023346302
DataValue, 0.72, 0, 0.00013544000000000002, 0.27592, 3278.7950383933839, 0.00013544000000000002, 2037.2120496160658
DataValue, 0.73, 0, 0.00013974000000000001, 0.28408, 3191.0691283812789, 0.00013974000000000001, 2032.9182767997709
DataValue, 0.74, 0, 0.00014494, 0.28715999999999997, 3124.3273078515249, 0.00014494, 1981.2336139092035
DataValue, 0.75, 0, 0.00014284, 0.2868, 3242.7891346961633, 0.00014284, 2007.8409409129095
DataValue, 0.76, 0, 0.00014700000000000002, 0.29047999999999996, 3194.0136054421769, 0.00014700000000000002, 1976.054421768707
DataValue, 0.77, 0, 0.00014946000000000002, 0.29628, 3169.5436906195637, 0.00014946000000000002, 1982.3364110798873
DataValue, 0.78, 0, 0.00015438000000000002, 0.30296, 3090.0375696333717, 0.00015438000000000002, 1962.4303666278013
DataValue, 0.79, 0, 0.00015682, 0.30491999999999997, 3093.2279046040048, 0.00015682, 1944.3948475959696
DataValue, 0.8, 0, 0.00015868000000000002, 0.30923999999999996, 3092.7653138391734, 0.00015868000000000002, 1948.8278295941514
DataValue, 0.81, 0, 0.00016394, 0.31651999999999997, 3010.1256557277056, 0.00016394, 1930.7063559838962
DataValue, 0.82000000000000006, 0, 0.00016822, 0.32464, 2944.7152538342648, 0.00016822, 1929.853762929497
DataValue, 0.83000000000000007, 0, 0.00017056000000000002, 0.32667999999999997, 2950.9849906191371, 0.00017056000000000002, 1915.337711069418
DataValue, 0.84, 0, 0.00017374, 0.33108, 2929.2045585357432, 0.00017374, 1905.6060780476573
DataValue, 0.85, 0, 0.00017896, 0.34271999999999997, 2834.5999105945457, 0.00017896, 1915.0648189539559
DataValue, 0.86, 0, 0.00018362, 0.34568, 2801.0020694913405, 0.00018362, 1882.5835965581091
DataValue, 0.87, 0, 0.00018718, 0.35075999999999996, 2774.0143177689924, 0.00018718, 1873.9181536488939
DataValue, 0.88, 0, 0.00019288, 0.35831999999999997, 2704.6868519286604, 0.00019288, 1857.7353795105762
DataValue, 0.89, 0, 0.00019416000000000003, 0.3624, 2717.3465183353933, 0.00019416000000000003, 1866.5018541409145
DataValue, 0.9, 0, 0.00019806, 0.36452, 2703.6251640916889, 0.00019806, 1840.4523881652024
DataValue, 0.91, 0, 0.00020172, 0.37076, 2673.2103906404918, 0.00020172, 1837.99325798136
DataValue, 0.92, 0, 0.00020518, 0.37711999999999996, 2645.8719173408713, 0.00020518, 1837.9959060337262
DataValue, 0.93, 0, 0.00021076000000000002, 0.38488, 2586.4490415638643, 0.00021076000000000002, 1826.1529702030744
DataValue, 0.94000000000000006, 0, 0.00021538000000000002, 0.39027999999999996, 2552.3261212740276, 0.00021538000000000002, 1812.0531154239015
DataValue, 0.95000000000000007, 0, 0.00021710000000000002, 0.39471999999999996, 2557.7153385536622, 0.00021710000000000002, 1818.1483187471208
DataValue, 0.96, 0, 0.00022522000000000002, 0.4052, 2463.3691501642834, 0.00022522000000000002, 1799.1297398099634
DataValue, 0.97, 0, 0.0002312, 0.41372, 2406.0553633217992, 0.0002312, 1789.4463667820069
DataValue, 0.98, 0, 0.00023908000000000002, 0.42316, 2329.0948636439684, 0.00023908000000000002, 1769.9514806759241
DataValue, 0.99, 0, 0.00024122000000000003, 0.43335999999999997, 2307.6030179918744, 0.00024122000000000003, 1796.5342840560481
DataValue, 1, 0, 0.0002547, 0.44864, 2164.7428347074992, 0.0002547, 1761.4448370632115
DataValue, 1.01, 0, 0.00025990000000000003, 0.45167999999999997, 2148.2108503270488, 0.00025990000000000003, 1737.8991919969217
DataValue, 1.02, 0, 0.00026684, 0.45332, 2123.6696147504126, 0.00026684, 1698.8457502623294
DataValue, 1.03, 0, 0.00026920000000000004, 0.46276, 2107.1322436849923, 0.00026920000000000004, 1719.0193164933132
DataValue, 1.04, 0, 0.00027752, 0.47447999999999996, 2037.7630441049294, 0.00027752, 1709.7146151628708
DataValue, 1.05, 0, 0.0002788, 0.47575999999999996, 2059.6843615494981, 0.0002788, 1706.4562410329984
DataValue, 1.06, 0, 0.00028936, 0.48424, 1989.7705280619298, 0.00028936, 1673.4863146253802
DataValue, 1.07, 0, 0.00029568000000000004, 0.4896, 1962.9329004329002, 0.00029568000000000004, 1655.8441558441555
DataValue, 1.08, 0, 0.00030378, 0.49784, 1916.3868589110539, 0.00030378, 1638.8175653433405
DataValue, 1.09, 0, 0.00031114, 0.50735999999999992, 1872.5975445137242, 0.00031114, 1630.6485826316125
DataValue, 1.1, 0, 0.00031604, 0.51147999999999993, 1862.1693456524495, 0.00031604, 1618.4027338311603
DataValue, 1.11, 0, 0.00032104000000000003, 0.51412, 1856.0926987291305, 0.00032104000000000003, 1601.4203837528032
DataValue, 1.12, 0, 0.00032412, 0.51696, 1860.5454769838336, 0.00032412, 1594.96482784154
DataValue, 1.1300000000000001, 0, 0.00033032, 0.52288, 1837.9752966820056, 0.00033032, 1582.9498667958344
DataValue, 1.1400000000000001, 0, 0.0003343, 0.52816, 1830.2123840861507, 0.0003343, 1579.8982949446604
DataValue, 1.1500000000000001, 0, 0.00034202, 0.53623999999999994, 1794.5149406467463, 0.00034202, 1567.8615285655808
DataValue, 1.16, 0, 0.00034166000000000003, 0.5412, 1811.1572908739679, 0.00034166000000000003, 1584.0309079201545
DataValue, 1.17, 0, 0.0003467, 0.54848, 1792.6737813671759, 0.0003467, 1582.0017306028265
DataValue, 1.18, 0, 0.00035514000000000005, 0.5546, 1760.9956636819279, 0.00035514000000000005, 1561.637664019823
DataValue, 1.19, 0, 0.00036498000000000005, 0.55472, 1740.5885253986517, 0.00036498000000000005, 1519.8641021425829
DataValue, 1.2, 0, 0.00037692000000000004, 0.56819999999999993, 1676.2177650429799, 0.00037692000000000004, 1507.4816937281116
DataValue, 1.21, 0, 0.00037836, 0.5728, 1684.1103710751665, 0.00037836, 1513.902103816471
DataValue, 1.22, 0, 0.00039106000000000004, 0.5788, 1639.6460901140488, 0.00039106000000000004, 1480.07978315348
DataValue, 1.23, 0, 0.00039194, 0.5866, 1641.5777925192631, 0.00039194, 1496.6576516813798
DataValue, 1.24, 0, 0.00040384000000000004, 0.59676, 1592.809033280507, 0.00040384000000000004, 1477.713946117274
DataValue, 1.25, 0, 0.0004069, 0.60532, 1584.3696239862375, 0.0004069, 1487.6382403538951
DataValue, 1.26, 0, 0.00041358000000000003, 0.61212, 1566.5167561294065, 0.00041358000000000003, 1480.0522268968518
