
SetupTitle, DualFORM1
PrimitiveTest, I/V Sweep
TestParameter, Context.MainFrame, B1500A
TestParameter, Channel.UnitType, SMU, SMU, SMU
TestParameter, Channel.Unit, SMU4:MP, SMU2:MP, SMU1:MP
TestParameter, Channel.IName, Irow, Icol, Igate
TestParameter, Channel.VName, Vrow, Vcol, Vgate
TestParameter, Channel.Mode, V, V, I
TestParameter, Channel.Func, VAR1, CONST, CONST
TestParameter, Channel.Index, 
TestParameter, Channel.Time, 
TestParameter, Measurement.Port.Unit, SMU4:MP, SMU2:MP, SMU1:MP
TestParameter, Measurement.Port.SeriesResistor, NONE, NONE, NONE
TestParameter, Measurement.Port.Filter, ON, ON, ON
TestParameter, Measurement.Port.OutputVoltageComparison, 0, 0, 0
TestParameter, Measurement.Primary.Locus, Double
TestParameter, Measurement.Primary.Scale, LINEAR
TestParameter, Measurement.Primary.Start, 0
TestParameter, Measurement.Primary.Stop, 5
TestParameter, Measurement.Primary.Step, 0.05
TestParameter, Measurement.Primary.Compliance, 5E-06
TestParameter, Measurement.Primary.PowerCompliance, 0
TestParameter, Measurement.Aborting.Condition, CONTINUE AT ANY
TestParameter, Measurement.PostOutput.Value, START
TestParameter, Measurement.PostOutput.Retention, OFF
TestParameter, Measurement.Bias.Source, 0, 0, 1E-13
TestParameter, Measurement.Bias.Compliance, 5E-06, 0.1, 10
TestParameter, Measurement.Monitor.Unit, SMU4:MP, SMU2:MP, SMU1:MP
TestParameter, Measurement.Monitor.Adc, HR ADC, HR ADC, HR ADC
TestParameter, Measurement.Monitor.Measurement, Compliance Side, Compliance Side, Compliance Side
TestParameter, Measurement.Monitor.RangingMode, LIMITED, LIMITED, LIMITED
TestParameter, Measurement.Monitor.RangeBoundary, 1nA, 1nA, 2V
TestParameter, Measurement.Monitor.RangeRating, BY FULL RANGE, BY FULL RANGE
TestParameter, Measurement.Monitor.RangeRatingCoeff, 50, 50
TestParameter, Measurement.Timing.Hold, 0
TestParameter, Measurement.Timing.Delay, 0
TestParameter, Measurement.Adc.HighSpeed.Mode, AUTO
TestParameter, Measurement.Adc.HighSpeed.Coeff, 1
TestParameter, Measurement.Adc.HighResolution.AutoZero, OFF
TestParameter, Measurement.Adc.HighResolution.Mode, AUTO
TestParameter, Measurement.Adc.HighResolution.Coeff, 6
TestParameter, Measurement.WaitTime.Source.Coeff, 1
TestParameter, Measurement.WaitTime.Source.Offset, 0
TestParameter, Measurement.WaitTime.Monitor.Coeff, 1
TestParameter, Measurement.WaitTime.Monitor.Offset, 0
TestParameter, Function.User.Name, R1, absIrow, R2
TestParameter, Function.User.Unit, ohm, A, ohm
TestParameter, Function.User.Definition, abs((Vrow-Vgate)/Irow), abs(Irow), abs(Vgate/Irow)
TestParameter, Output.Graph.Enabled, true
TestParameter, Output.Graph.AutoScaling, false
TestParameter, Output.Graph.XAxis.Data, Vrow
TestParameter, Output.Graph.XAxis.Scale, Linear
TestParameter, Output.Graph.XAxis.Left, 0
TestParameter, Output.Graph.XAxis.Right, 1.5
TestParameter, Output.Graph.XAxis.RunTimeAutoScale, true
TestParameter, Output.Graph.YAxis.Data, absIrow, Vgate
TestParameter, Output.Graph.YAxis.Scale, Linear, Linear
TestParameter, Output.Graph.YAxis.Bottom, 0, -0.1
TestParameter, Output.Graph.YAxis.Top, 1, 0.1
TestParameter, Output.Graph.YAxis.Group, , 
TestParameter, Output.Graph.YAxis.RunTimeAutoScale, true, true
TestParameter, Output.List.Data, Vrow, Vcol, R1, R2, Vgate, Irow
TestParameter, AutoAnalysis.Interpolation, false
TestParameter, AutoAnalysis.Line1.Enabled, false
TestParameter, AutoAnalysis.Line1.Type, 1
TestParameter, AutoAnalysis.Line1.Fix, True
TestParameter, AutoAnalysis.Line1.YAxis, 0
TestParameter, AutoAnalysis.Line1.Point1.Type, 0
TestParameter, AutoAnalysis.Line1.Point1.XY.X, 
TestParameter, AutoAnalysis.Line1.Point1.XY.Y, 
TestParameter, AutoAnalysis.Line1.Point1.Data.Var, 
TestParameter, AutoAnalysis.Line1.Point1.Data.Condition, 
TestParameter, AutoAnalysis.Line1.Point1.Data.Start, false
TestParameter, AutoAnalysis.Line1.Point1.Data.StartVar, 
TestParameter, AutoAnalysis.Line1.Point1.Data.StartCondition, 
TestParameter, AutoAnalysis.Line1.Point2.Type, 0
TestParameter, AutoAnalysis.Line1.Point2.XY.X, 
TestParameter, AutoAnalysis.Line1.Point2.XY.Y, 
TestParameter, AutoAnalysis.Line1.Point2.Data.Var, 
TestParameter, AutoAnalysis.Line1.Point2.Data.Condition, 
TestParameter, AutoAnalysis.Line1.Point2.Data.Start, false
TestParameter, AutoAnalysis.Line1.Point2.Data.StartVar, 
TestParameter, AutoAnalysis.Line1.Point2.Data.StartCondition, 
TestParameter, AutoAnalysis.Line1.GradientExpr, 0
TestParameter, AutoAnalysis.Line2.Enabled, false
TestParameter, AutoAnalysis.Line2.Type, 1
TestParameter, AutoAnalysis.Line2.Fix, True
TestParameter, AutoAnalysis.Line2.YAxis, 0
TestParameter, AutoAnalysis.Line2.Point1.Type, 0
TestParameter, AutoAnalysis.Line2.Point1.XY.X, 
TestParameter, AutoAnalysis.Line2.Point1.XY.Y, 
TestParameter, AutoAnalysis.Line2.Point1.Data.Var, 
TestParameter, AutoAnalysis.Line2.Point1.Data.Condition, 
TestParameter, AutoAnalysis.Line2.Point1.Data.Start, false
TestParameter, AutoAnalysis.Line2.Point1.Data.StartVar, 
TestParameter, AutoAnalysis.Line2.Point1.Data.StartCondition, 
TestParameter, AutoAnalysis.Line2.Point2.Type, 0
TestParameter, AutoAnalysis.Line2.Point2.XY.X, 
TestParameter, AutoAnalysis.Line2.Point2.XY.Y, 
TestParameter, AutoAnalysis.Line2.Point2.Data.Var, 
TestParameter, AutoAnalysis.Line2.Point2.Data.Condition, 
TestParameter, AutoAnalysis.Line2.Point2.Data.Start, false
TestParameter, AutoAnalysis.Line2.Point2.Data.StartVar, 
TestParameter, AutoAnalysis.Line2.Point2.Data.StartCondition, 
TestParameter, AutoAnalysis.Line2.GradientExpr, 0
TestParameter, AutoAnalysis.Marker.Enabled, false
TestParameter, AutoAnalysis.Marker.Data.Var, 
TestParameter, AutoAnalysis.Marker.Data.Condition, 
TestParameter, AutoAnalysis.Marker.Data.Start, false
TestParameter, AutoAnalysis.Marker.Data.StartVar, 
TestParameter, AutoAnalysis.Marker.Data.StartCondition, 
MetaData, TestRecord.EntryPoint, true
MetaData, TestRecord.RecordTime, 03/21/2019 19:58:13
MetaData, TestRecord.TestTarget, 
MetaData, TestRecord.IterationIndex, 1
MetaData, TestRecord.Preservation, true
MetaData, TestRecord.Flag, 
MetaData, TestRecord.Remarks, 
MetaData, TestRecord.LinkKey, eb8d26fc-f3ae-4764-a45b-1fbc9e5629f7
Dimension1, 202, 202, 202, 202, 202, 202, 202
Dimension2, 1, 1, 1, 1, 1, 1, 1
DataName, Vrow, Vcol, Irow, Vgate, R1, absIrow, R2
DataValue, 0, 0, 6.7400000000000008E-11, -0.24592, 3648664688.4272995, 6.7400000000000008E-11, 3648664688.4272995
DataValue, 0.05, 0, 8.533E-11, -0.18164, 2714637290.5191607, 8.533E-11, 2128676901.4414625
DataValue, 0.1, 0, 3.437E-11, -0.10619999999999999, 5999418097.1777716, 3.437E-11, 3089903986.0343318
DataValue, 0.15, 0, 4.6600000000000007E-12, -0.00804, 33914163090.128746, 4.6600000000000007E-12, 1725321888.4120169
DataValue, 0.2, 0, -5.5850000000000006E-11, 0.03696, 2919247985.6759176, 5.5850000000000006E-11, 661772605.19247973
DataValue, 0.25, 0, -7.731E-11, 0.0728, 2292070883.4562149, 7.731E-11, 941663432.93235028
DataValue, 0.3, 0, -8.0020000000000012E-11, 0.008879999999999999, 3638090477.3806543, 8.0020000000000012E-11, 110972256.93576603
DataValue, 0.35000000000000003, 0, -2.817E-11, -0.03748, 13755058572.949947, 2.817E-11, 1330493432.7298544
DataValue, 0.4, 0, 8.05E-12, -0.09984, 62091925465.838509, 8.05E-12, 12402484472.049688
DataValue, 0.45, 0, 6.0150000000000007E-11, -0.10696, 9259517871.9866982, 6.0150000000000007E-11, 1778221113.8819616
DataValue, 0.5, 0, 7.5560000000000008E-11, -0.09056, 7815775542.615139, 7.5560000000000008E-11, 1198517734.2509263
DataValue, 0.55, 0, 7.745E-11, -0.03908, 7605939315.687541, 7.745E-11, 504583602.32408
DataValue, 0.6, 0, 8.42E-11, 0.05588, 6462232779.0973864, 8.42E-11, 663657957.24465549
DataValue, 0.65, 0, 3.296E-11, 0.15524, 15010922330.097088, 3.296E-11, 4709951456.3106794
DataValue, 0.70000000000000007, 0, -6.0100000000000004E-12, 0.28556, 68958402662.22963, 6.0100000000000004E-12, 47514143094.841927
DataValue, 0.75, 0, -7.602E-11, 0.37028, 4995001315.4433041, 7.602E-11, 4870823467.5085506
DataValue, 0.8, 0, -8.155E-11, 0.34824, 5539668914.7762108, 8.155E-11, 4270263641.9374614
DataValue, 0.85, 0, -2.9850000000000005E-11, 0.32424, 17613400335.008373, 2.9850000000000005E-11, 10862311557.788942
DataValue, 0.9, 0, -2.5000000000000003E-12, 0.2814, 247440000000, 2.5000000000000003E-12, 112559999999.99999
DataValue, 0.95000000000000007, 0, 4.639E-11, 0.28148, 14410864410.433283, 4.639E-11, 6067687001.5089464
DataValue, 1, 0, 8.321E-11, 0.30916, 8302367503.9057808, 8.321E-11, 3715418819.8533826
DataValue, 1.05, 0, 9.131E-11, 0.37944, 7343773956.85029, 9.131E-11, 4155514182.4553714
DataValue, 1.1, 0, 7.519E-11, 0.49219999999999997, 8083521744.9128885, 7.519E-11, 6546083255.7520943
DataValue, 1.1500000000000001, 0, 2.7080000000000002E-11, 0.60164, 20249630723.781395, 2.7080000000000002E-11, 22217134416.543571
DataValue, 1.2, 0, -1.075E-11, 0.72871999999999992, 43840000000, 1.075E-11, 67787906976.744179
DataValue, 1.25, 0, -5.7400000000000003E-11, 0.80211999999999994, 7802787456.4459934, 5.7400000000000003E-11, 13974216027.874563
DataValue, 1.3, 0, -6.413E-11, 0.85356, 6961484484.6405745, 6.413E-11, 13309839388.741617
DataValue, 1.35, 0, -8.136E-11, 0.85776, 6050147492.62537, 8.136E-11, 10542772861.356932
DataValue, 1.4000000000000001, 0, -3.248E-11, 0.82556, 17685960591.133011, 3.248E-11, 25417487684.729061
DataValue, 1.45, 0, -5.5200000000000007E-12, 0.78208, 120999999999.99997, 5.5200000000000007E-12, 141681159420.28983
DataValue, 1.5, 0, 4.2270000000000006E-11, 0.76332, 17427963094.393185, 4.2270000000000006E-11, 18058197303.051807
DataValue, 1.55, 0, 7.99E-11, 0.76891999999999994, 9775719649.5619526, 7.99E-11, 9623529411.7647038
DataValue, 1.6, 0, 8.635E-11, 0.8188, 9046902142.4435444, 8.635E-11, 9482339316.73422
DataValue, 1.6500000000000001, 0, 8.052000000000001E-11, 0.90864, 9207153502.23547, 8.052000000000001E-11, 11284649776.453054
DataValue, 1.7, 0, 2.956E-11, 1.00108, 23644113667.117725, 2.956E-11, 33866035182.679295
DataValue, 1.75, 0, -4.41E-11, 1.1239599999999999, 14195918367.346941, 4.41E-11, 25486621315.192738
DataValue, 1.8, 0, -6.121E-11, 1.1534, 10563633393.2364, 6.121E-11, 18843326253.880085
DataValue, 1.85, 0, -4.6380000000000006E-11, 1.09092, 16366537300.560589, 4.6380000000000006E-11, 23521345407.503227
DataValue, 1.9000000000000001, 0, -3.8900000000000006E-12, 1.04452, 219917737789.20313, 3.8900000000000006E-12, 268514138817.48065
DataValue, 1.95, 0, 3.947E-11, 0.98624, 24417532303.014946, 3.947E-11, 24987078794.020775
DataValue, 2, 0, 8.1900000000000009E-11, 0.97271999999999992, 12543101343.101343, 8.1900000000000009E-11, 11876923076.923075
DataValue, 2.05, 0, 8.472E-11, 0.982, 12606232294.617561, 8.472E-11, 11591123701.605288
DataValue, 2.1, 0, 1.0226E-10, 1.03068, 10456874633.287699, 1.0226E-10, 10079014277.332291
DataValue, 2.15, 0, 5.4170000000000005E-11, 1.10984, 19201772198.633926, 5.4170000000000005E-11, 20488093040.42828
DataValue, 2.2, 0, 4.6710000000000006E-11, 1.1577199999999999, 22313851423.678017, 4.6710000000000006E-11, 24785270819.952896
DataValue, 2.25, 0, 1.018E-11, 1.257, 97544204322.2004, 1.018E-11, 123477406679.76422
DataValue, 2.3000000000000003, 0, -3.784E-11, 1.31724, 25971458773.784363, 3.784E-11, 34810782241.014793
DataValue, 2.35, 0, -4.7880000000000007E-11, 1.3656, 20559732664.995823, 4.7880000000000007E-11, 28521303258.145359
DataValue, 2.4, 0, -5.1220000000000005E-11, 1.3724399999999999, 20061694650.527138, 5.1220000000000005E-11, 26795001952.362354
DataValue, 2.45, 0, 5.19E-12, 1.33552, 214736030828.51639, 5.19E-12, 257325626204.23892
DataValue, 2.5, 0, 5.0380000000000005E-11, 1.28284, 24159587137.753075, 5.0380000000000005E-11, 25463279078.9996
DataValue, 2.5500000000000003, 0, 1.0511000000000001E-10, 1.23084, 12550280658.357912, 1.0511000000000001E-10, 11710018076.301016
DataValue, 2.6, 0, 1.4684E-10, 1.2061199999999999, 9492508853.1735229, 1.4684E-10, 8213838191.2285471
DataValue, 2.65, 0, 1.5266000000000002E-10, 1.2087599999999998, 9440848945.3687935, 1.5266000000000002E-10, 7917987685.0517473
DataValue, 2.7, 0, 1.4886000000000002E-10, 1.25756, 9689909982.5339241, 1.4886000000000002E-10, 8447937659.5458813
DataValue, 2.75, 0, 9.948E-11, 1.30932, 14482106956.172094, 9.948E-11, 13161640530.759953
DataValue, 2.8000000000000003, 0, 6.391E-11, 1.397, 21952746049.131596, 6.391E-11, 21858864027.538727
DataValue, 2.85, 0, 1.7140000000000002E-11, 1.45428, 81430571761.960327, 1.7140000000000002E-11, 84847141190.198364
DataValue, 2.9, 0, 1.6650000000000002E-11, 1.5107599999999999, 83437837837.83783, 1.6650000000000002E-11, 90736336336.336319
DataValue, 2.95, 0, 1.8710000000000002E-11, 1.5426799999999998, 75217530732.22876, 1.8710000000000002E-11, 82452164617.8514
DataValue, 3, 0, 9.109E-11, 1.54308, 15994291360.193214, 9.109E-11, 16940169063.563507
DataValue, 3.0500000000000003, 0, 1.5258E-10, 1.5308, 9956744003.1458931, 1.5258E-10, 10032769694.586445
DataValue, 3.1, 0, 2.3695E-10, 1.49704, 6764971512.9774227, 2.3695E-10, 6317957374.9736233
DataValue, 3.15, 0, 3.1289000000000004E-10, 1.47688, 5347310556.42558, 3.1289000000000004E-10, 4720125283.6460094
DataValue, 3.2, 0, 3.5083E-10, 1.4463199999999998, 4998660319.8130159, 3.5083E-10, 4122566485.1922579
DataValue, 3.25, 0, 2.7833E-10, 1.45096, 6463694175.9781551, 2.7833E-10, 5213092372.3637409
DataValue, 3.3000000000000003, 0, 2.3122000000000003E-10, 1.52528, 7675460600.2940922, 2.3122000000000003E-10, 6596661188.4785042
DataValue, 3.35, 0, 1.9687000000000001E-10, 1.5804799999999999, 8988266368.6696815, 1.9687000000000001E-10, 8028038807.3347883
DataValue, 3.4, 0, 2.2201000000000002E-10, 1.63232, 7962163866.4924994, 2.2201000000000002E-10, 7352461600.8287907
DataValue, 3.45, 0, 2.5847E-09, 1.98308, 567539753.162843, 2.5847E-09, 767237977.32812321
DataValue, 3.5, 0, 2.8002E-09, 1.9883199999999999, 539847153.77473044, 2.8002E-09, 710063566.8880794
DataValue, 3.5500000000000003, 0, 3.0038E-09, 2.0010399999999997, 515666822.02543467, 3.0038E-09, 666169518.60976088
DataValue, 3.6, 0, 3.1848E-09, 2.01112, 498894750.06279832, 3.1848E-09, 631474503.89349413
DataValue, 3.65, 0, 3.3013E-09, 2.0225999999999997, 492957319.84369797, 3.3013E-09, 612667736.95210969
DataValue, 3.7, 0, 3.4282E-09, 2.02936, 487322793.30260783, 3.4282E-09, 591960795.7528733
DataValue, 3.75, 0, 3.5424E-09, 2.0438, 481650858.17524838, 3.5424E-09, 576953477.868112
DataValue, 3.8000000000000003, 0, 3.6275E-09, 2.05908, 479922811.853894, 3.6275E-09, 567630599.586492
DataValue, 3.85, 0, 3.7986E-09, 2.08864, 463686621.38682681, 3.7986E-09, 549844679.618807
DataValue, 3.9, 0, 3.2674E-09, 1.998, 582114219.2569015, 3.2674E-09, 611495378.58848011
DataValue, 3.95, 0, 4.1653E-09, 2.10452, 443060523.85182345, 4.1653E-09, 505250522.17127216
DataValue, 4, 0, 4.5043E-09, 2.07284, 427848944.3420732, 4.5043E-09, 460191372.68832004
DataValue, 4.05, 0, 4.6041E-09, 2.0916, 425360005.21274513, 4.6041E-09, 454290740.86140621
DataValue, 4.1, 0, 4.9151E-09, 2.10508, 405875770.58452517, 4.9151E-09, 428288335.9443348
DataValue, 4.15, 0, 2.0195E-09, 1.86236, 1132775439.4652145, 2.0195E-09, 922188660.55954444
DataValue, 4.2, 0, 2.1887E-09, 1.8950799999999999, 1053100013.7067666, 2.1887E-09, 865847306.62036812
DataValue, 4.25, 0, 2.3797E-09, 1.90896, 983754254.73799217, 2.3797E-09, 802185149.38857841
DataValue, 4.3, 0, 2.7346E-09, 1.94312, 861873765.81584132, 2.7346E-09, 710568273.23923051
DataValue, 4.3500000000000005, 0, 5.7654999999999996E-09, 2.15692, 380379845.63350981, 5.7654999999999996E-09, 374108056.54323131
DataValue, 4.4, 0, 6.2608E-09, 2.1704399999999997, 356114234.60260683, 6.2608E-09, 346671351.90391004
DataValue, 4.45, 0, 6.5837E-09, 2.18444, 344116530.21857017, 6.5837E-09, 331795191.1539104
DataValue, 4.5, 0, 7.6466E-09, 2.1532, 306907645.22794443, 7.6466E-09, 281589203.04449034
DataValue, 4.55, 0, 9.1698E-09, 2.1946, 256864926.17069075, 9.1698E-09, 239329102.05238935
DataValue, 4.6000000000000005, 0, 1.0230799999999998E-08, 2.2184000000000004, 232787269.81272242, 1.0230799999999998E-08, 216835438.08890808
DataValue, 4.65, 0, 1.06232E-08, 2.2374, 227106709.84260866, 1.06232E-08, 210614504.10422474
DataValue, 4.7, 0, 1.1932799999999999E-08, 2.2878000000000003, 202148699.38321266, 1.1932799999999999E-08, 191723652.45374098
DataValue, 4.75, 0, 1.28228E-08, 2.2843, 192290295.41129863, 1.28228E-08, 178143619.17833859
DataValue, 4.8, 0, 1.4102799999999998E-08, 2.2881, 178113566.10034889, 1.4102799999999998E-08, 162244377.00314835
DataValue, 4.8500000000000005, 0, 8.442E-08, 2.3289, 29863776.356313676, 8.442E-08, 27587064.676616915
DataValue, 4.9, 0, 1.2825999999999999E-07, 2.245, 20700140.339934513, 1.2825999999999999E-07, 17503508.498362705
DataValue, 4.95, 0, 1.3789999999999998E-07, 2.2519, 19565627.266134884, 1.3789999999999998E-07, 16329949.238578683
DataValue, 5, 0, 1.3924E-07, 2.2825, 19516661.878770467, 1.3924E-07, 16392559.609307673
DataValue, 5, 0, 1.3756E-07, 2.3131000000000004, 19532567.606862459, 1.3756E-07, 16815207.909275956
DataValue, 4.95, 0, 1.3038E-07, 2.2728, 20533824.206166588, 1.3038E-07, 17432121.49102623
DataValue, 4.9, 0, 1.3476E-07, 2.1573, 20352478.480261207, 1.3476E-07, 16008459.483526271
DataValue, 4.8500000000000005, 0, 1.020104E-07, 2.0646, 27305059.092014156, 1.020104E-07, 20239112.874765713
DataValue, 4.8, 0, 9.43118E-08, 2.0919000000000003, 28714328.429740496, 9.43118E-08, 22180681.526595827
DataValue, 4.75, 0, 8.0869E-08, 2.0182, 33780558.681324117, 8.0869E-08, 24956410.985668182
DataValue, 4.7, 0, 5.0006000000000009E-06, 0.00047999999999999996, 939791.22505299363, 5.0006000000000009E-06, 95.988481382234113
DataValue, 4.65, 0, 5.0005000000000007E-06, 0.00052, 929803.0196980302, 5.0005000000000007E-06, 103.98960103989599
DataValue, 4.6000000000000005, 0, 5.0003E-06, 0.00039999999999999996, 919864.80811151338, 5.0003E-06, 79.995200287982712
DataValue, 4.55, 0, 5.0005000000000007E-06, 0.00056, 909797.02029797, 5.0005000000000007E-06, 111.98880111988798
DataValue, 4.5, 0, 5.0004000000000004E-06, 0.00043999999999999996, 899840.01279897592, 5.0004000000000004E-06, 87.992960563154938
DataValue, 4.45, 0, 5.0003E-06, 0.00052, 889842.60944343347, 5.0003E-06, 103.99376037437753
DataValue, 4.4, 0, 5.0006000000000009E-06, 0.00052, 879790.42514898209, 5.0006000000000009E-06, 103.98752149742029
DataValue, 4.3500000000000005, 0, 5.0004000000000004E-06, 0.00052, 869826.41388688912, 5.0004000000000004E-06, 103.99168066554674
DataValue, 4.3, 0, 5.0004000000000004E-06, 0.00052, 859827.213822894, 5.0004000000000004E-06, 103.99168066554674
DataValue, 4.25, 0, 5.0006000000000009E-06, 0.00047999999999999996, 849802.02375714912, 5.0006000000000009E-06, 95.988481382234113
DataValue, 4.2, 0, 5.0005000000000007E-06, 0.00047999999999999996, 839820.01799820014, 5.0005000000000007E-06, 95.990400959904
DataValue, 4.15, 0, 5.0004000000000004E-06, 0.00052, 829829.61363090959, 5.0004000000000004E-06, 103.99168066554674
DataValue, 4.1, 0, 5.0004000000000004E-06, 0.00047999999999999996, 819838.41292696574, 5.0004000000000004E-06, 95.992320614350831
DataValue, 4.05, 0, 5.0005000000000007E-06, 0.00047999999999999996, 809823.01769823011, 5.0005000000000007E-06, 95.990400959904
DataValue, 4, 0, 5.0004000000000004E-06, 0.00052, 799832.0134389248, 5.0004000000000004E-06, 103.99168066554674
DataValue, 3.95, 0, 5.0004000000000004E-06, 0.00052, 789832.81337493, 5.0004000000000004E-06, 103.99168066554674
DataValue, 3.9, 0, 5.0004000000000004E-06, 0.00052, 779833.61331093509, 5.0004000000000004E-06, 103.99168066554674
DataValue, 3.85, 0, 5.0006000000000009E-06, 0.00052, 769803.62356517208, 5.0006000000000009E-06, 103.98752149742029
DataValue, 3.8000000000000003, 0, 5.0004000000000004E-06, 0.00052, 759835.21318294539, 5.0004000000000004E-06, 103.99168066554674
