
SetupTitle, DualSET
PrimitiveTest, I/V Sweep
TestParameter, Context.MainFrame, B1500A
TestParameter, Channel.UnitType, SMU, SMU, SMU
TestParameter, Channel.Unit, SMU4:MP, SMU2:MP, SMU1:MP
TestParameter, Channel.IName, Irow, Icol, Igate
TestParameter, Channel.VName, Vrow, Vcol, Vgate
TestParameter, Channel.Mode, V, V, I
TestParameter, Channel.Func, VAR1, CONST, CONST
TestParameter, Channel.Index, 
TestParameter, Channel.Time, 
TestParameter, Measurement.Port.Unit, SMU4:MP, SMU2:MP, SMU1:MP
TestParameter, Measurement.Port.SeriesResistor, NONE, NONE, NONE
TestParameter, Measurement.Port.Filter, ON, ON, ON
TestParameter, Measurement.Port.OutputVoltageComparison, 0, 0, 0
TestParameter, Measurement.Primary.Locus, Double
TestParameter, Measurement.Primary.Scale, LINEAR
TestParameter, Measurement.Primary.Start, 0
TestParameter, Measurement.Primary.Stop, 1.3
TestParameter, Measurement.Primary.Step, 0.01
TestParameter, Measurement.Primary.Compliance, 0.004
TestParameter, Measurement.Primary.PowerCompliance, 0
TestParameter, Measurement.Aborting.Condition, CONTINUE AT ANY
TestParameter, Measurement.PostOutput.Value, START
TestParameter, Measurement.PostOutput.Retention, OFF
TestParameter, Measurement.Bias.Source, 0, 0, 1E-13
TestParameter, Measurement.Bias.Compliance, 0.004, 0.1, 10
TestParameter, Measurement.Monitor.Unit, SMU4:MP, SMU2:MP, SMU1:MP
TestParameter, Measurement.Monitor.Adc, HR ADC, HR ADC, HR ADC
TestParameter, Measurement.Monitor.Measurement, Compliance Side, Compliance Side, Compliance Side
TestParameter, Measurement.Monitor.RangingMode, LIMITED, LIMITED, LIMITED
TestParameter, Measurement.Monitor.RangeBoundary, 1nA, 1nA, 2V
TestParameter, Measurement.Monitor.RangeRating, BY FULL RANGE, BY FULL RANGE
TestParameter, Measurement.Monitor.RangeRatingCoeff, 50, 50
TestParameter, Measurement.Timing.Hold, 0
TestParameter, Measurement.Timing.Delay, 0
TestParameter, Measurement.Adc.HighSpeed.Mode, AUTO
TestParameter, Measurement.Adc.HighSpeed.Coeff, 1
TestParameter, Measurement.Adc.HighResolution.AutoZero, OFF
TestParameter, Measurement.Adc.HighResolution.Mode, AUTO
TestParameter, Measurement.Adc.HighResolution.Coeff, 6
TestParameter, Measurement.WaitTime.Source.Coeff, 1
TestParameter, Measurement.WaitTime.Source.Offset, 0
TestParameter, Measurement.WaitTime.Monitor.Coeff, 1
TestParameter, Measurement.WaitTime.Monitor.Offset, 0
TestParameter, Function.User.Name, R1, absIrow, R2
TestParameter, Function.User.Unit, ohm, A, ohm
TestParameter, Function.User.Definition, abs((Vrow-Vgate)/Irow), abs(Irow), abs(Vgate/Irow)
TestParameter, Output.Graph.Enabled, true
TestParameter, Output.Graph.AutoScaling, false
TestParameter, Output.Graph.XAxis.Data, Vrow
TestParameter, Output.Graph.XAxis.Scale, Linear
TestParameter, Output.Graph.XAxis.Left, 0
TestParameter, Output.Graph.XAxis.Right, 1.5
TestParameter, Output.Graph.XAxis.RunTimeAutoScale, true
TestParameter, Output.Graph.YAxis.Data, absIrow, Vgate
TestParameter, Output.Graph.YAxis.Scale, Linear, Linear
TestParameter, Output.Graph.YAxis.Bottom, 0, -0.1
TestParameter, Output.Graph.YAxis.Top, 1, 0.1
TestParameter, Output.Graph.YAxis.Group, , 
TestParameter, Output.Graph.YAxis.RunTimeAutoScale, true, true
TestParameter, Output.List.Data, Vrow, Vcol, R1, R2, Vgate, Irow
TestParameter, AutoAnalysis.Interpolation, false
TestParameter, AutoAnalysis.Line1.Enabled, false
TestParameter, AutoAnalysis.Line1.Type, 1
TestParameter, AutoAnalysis.Line1.Fix, True
TestParameter, AutoAnalysis.Line1.YAxis, 0
TestParameter, AutoAnalysis.Line1.Point1.Type, 0
TestParameter, AutoAnalysis.Line1.Point1.XY.X, 
TestParameter, AutoAnalysis.Line1.Point1.XY.Y, 
TestParameter, AutoAnalysis.Line1.Point1.Data.Var, 
TestParameter, AutoAnalysis.Line1.Point1.Data.Condition, 
TestParameter, AutoAnalysis.Line1.Point1.Data.Start, false
TestParameter, AutoAnalysis.Line1.Point1.Data.StartVar, 
TestParameter, AutoAnalysis.Line1.Point1.Data.StartCondition, 
TestParameter, AutoAnalysis.Line1.Point2.Type, 0
TestParameter, AutoAnalysis.Line1.Point2.XY.X, 
TestParameter, AutoAnalysis.Line1.Point2.XY.Y, 
TestParameter, AutoAnalysis.Line1.Point2.Data.Var, 
TestParameter, AutoAnalysis.Line1.Point2.Data.Condition, 
TestParameter, AutoAnalysis.Line1.Point2.Data.Start, false
TestParameter, AutoAnalysis.Line1.Point2.Data.StartVar, 
TestParameter, AutoAnalysis.Line1.Point2.Data.StartCondition, 
TestParameter, AutoAnalysis.Line1.GradientExpr, 0
TestParameter, AutoAnalysis.Line2.Enabled, false
TestParameter, AutoAnalysis.Line2.Type, 1
TestParameter, AutoAnalysis.Line2.Fix, True
TestParameter, AutoAnalysis.Line2.YAxis, 0
TestParameter, AutoAnalysis.Line2.Point1.Type, 0
TestParameter, AutoAnalysis.Line2.Point1.XY.X, 
TestParameter, AutoAnalysis.Line2.Point1.XY.Y, 
TestParameter, AutoAnalysis.Line2.Point1.Data.Var, 
TestParameter, AutoAnalysis.Line2.Point1.Data.Condition, 
TestParameter, AutoAnalysis.Line2.Point1.Data.Start, false
TestParameter, AutoAnalysis.Line2.Point1.Data.StartVar, 
TestParameter, AutoAnalysis.Line2.Point1.Data.StartCondition, 
TestParameter, AutoAnalysis.Line2.Point2.Type, 0
TestParameter, AutoAnalysis.Line2.Point2.XY.X, 
TestParameter, AutoAnalysis.Line2.Point2.XY.Y, 
TestParameter, AutoAnalysis.Line2.Point2.Data.Var, 
TestParameter, AutoAnalysis.Line2.Point2.Data.Condition, 
TestParameter, AutoAnalysis.Line2.Point2.Data.Start, false
TestParameter, AutoAnalysis.Line2.Point2.Data.StartVar, 
TestParameter, AutoAnalysis.Line2.Point2.Data.StartCondition, 
TestParameter, AutoAnalysis.Line2.GradientExpr, 0
TestParameter, AutoAnalysis.Marker.Enabled, false
TestParameter, AutoAnalysis.Marker.Data.Var, 
TestParameter, AutoAnalysis.Marker.Data.Condition, 
TestParameter, AutoAnalysis.Marker.Data.Start, false
TestParameter, AutoAnalysis.Marker.Data.StartVar, 
TestParameter, AutoAnalysis.Marker.Data.StartCondition, 
MetaData, TestRecord.EntryPoint, true
MetaData, TestRecord.RecordTime, 03/21/2019 19:59:45
MetaData, TestRecord.TestTarget, 
MetaData, TestRecord.IterationIndex, 1
MetaData, TestRecord.Preservation, true
MetaData, TestRecord.Flag, 
MetaData, TestRecord.Remarks, 
MetaData, TestRecord.LinkKey, 76f21f0e-a3ea-4e05-9272-c31d8e789b66
Dimension1, 262, 262, 262, 262, 262, 262, 262
Dimension2, 1, 1, 1, 1, 1, 1, 1
DataName, Vrow, Vcol, Irow, Vgate, R1, absIrow, R2
DataValue, 0, 0, 9.859E-07, 0.00011999999999999999, 121.71619839740339, 9.859E-07, 121.71619839740339
DataValue, 0.01, 0, 2.6602E-05, 0.0026, 278.17457334035038, 2.6602E-05, 97.737012254717683
DataValue, 0.02, 0, 5.2988E-05, 0.00516, 280.06341058352837, 5.2988E-05, 97.380538989959987
DataValue, 0.030000000000000002, 0, 7.9536E-05, 0.0076399999999999992, 281.13055723194532, 7.9536E-05, 96.057131361899
DataValue, 0.04, 0, 0.00010615200000000001, 0.01028, 279.975883638556, 0.00010615200000000001, 96.842263923430536
DataValue, 0.05, 0, 0.00013284, 0.012839999999999999, 279.73501957241797, 0.00013284, 96.657633242999083
DataValue, 0.060000000000000005, 0, 0.00015978000000000002, 0.015439999999999999, 278.88346476405053, 0.00015978000000000002, 96.6328701965202
DataValue, 0.07, 0, 0.00018728, 0.01804, 277.44553609568561, 0.00018728, 96.3263562580094
DataValue, 0.08, 0, 0.00021468000000000003, 0.02064, 276.504564933855, 0.00021468000000000003, 96.143096702068178
DataValue, 0.090000000000000011, 0, 0.00024232000000000003, 0.02332, 275.17332452954776, 0.00024232000000000003, 96.236381644106956
DataValue, 0.1, 0, 0.00027018, 0.026, 273.89147975423793, 0.00027018, 96.232141535272774
DataValue, 0.11, 0, 0.00029828, 0.02872, 272.49564167895937, 0.00029828, 96.285369451522058
DataValue, 0.12000000000000001, 0, 0.00032766, 0.03156, 269.91393517670758, 0.00032766, 96.319355429408517
DataValue, 0.13, 0, 0.00035756000000000004, 0.03436, 267.47958384606778, 0.00035756000000000004, 96.09576015214229
DataValue, 0.14, 0, 0.00038668000000000003, 0.0372, 265.85290162408194, 0.00038668000000000003, 96.203579186924571
DataValue, 0.15, 0, 0.00041702000000000004, 0.04008, 263.58448036065414, 0.00041702000000000004, 96.110498297443755
DataValue, 0.16, 0, 0.00044720000000000003, 0.043039999999999995, 261.53846153846155, 0.00044720000000000003, 96.243291592128784
DataValue, 0.17, 0, 0.00047828000000000004, 0.046, 259.26235677845614, 0.00047828000000000004, 96.177971062975658
DataValue, 0.18000000000000002, 0, 0.00051014000000000007, 0.04908, 256.63543341043641, 0.00051014000000000007, 96.208883835809758
DataValue, 0.19, 0, 0.00054222, 0.052239999999999995, 254.06661502711074, 0.00054222, 96.3446571502342
DataValue, 0.2, 0, 0.00057474, 0.05536, 251.66162090684486, 0.00057474, 96.321815081602111
DataValue, 0.21000000000000002, 0, 0.00060878000000000006, 0.0584, 249.02263543480402, 0.00060878000000000006, 95.929564046125023
DataValue, 0.22, 0, 0.00064348000000000009, 0.061919999999999996, 245.66420090756509, 0.00064348000000000009, 96.226766954683882
DataValue, 0.23, 0, 0.0006765600000000001, 0.06504, 243.82168617713134, 0.0006765600000000001, 96.133380631429574
DataValue, 0.24000000000000002, 0, 0.00071102, 0.06835999999999999, 241.39967933391466, 0.00071102, 96.143568394700551
DataValue, 0.25, 0, 0.00074716000000000008, 0.07168, 238.66374002890944, 0.00074716000000000008, 95.936613309063631
DataValue, 0.26, 0, 0.00078142, 0.075159999999999991, 236.54372808476876, 0.00078142, 96.183870389803161
DataValue, 0.27, 0, 0.00081770000000000009, 0.07868, 233.97333985569279, 0.00081770000000000009, 96.221107985813859
DataValue, 0.28, 0, 0.00085528, 0.08216, 231.31606023758303, 0.00085528, 96.062108315405467
DataValue, 0.29000000000000004, 0, 0.00089230000000000006, 0.08588, 228.75714445814188, 0.00089230000000000006, 96.24565729014904
DataValue, 0.3, 0, 0.00092878, 0.08928, 226.87827041925965, 0.00092878, 96.1261009065656
DataValue, 0.31, 0, 0.00096882, 0.09312, 223.85995334530668, 0.00096882, 96.116925744720376
DataValue, 0.32, 0, 0.0010059000000000001, 0.09668, 222.01014017297942, 0.0010059000000000001, 96.112933691221784
DataValue, 0.33, 0, 0.0010476, 0.10048, 219.09125620465824, 0.0010476, 95.914471172203122
DataValue, 0.34, 0, 0.0010827200000000001, 0.10411999999999999, 217.85872617112457, 0.0010827200000000001, 96.165213536278984
DataValue, 0.35000000000000003, 0, 0.00112402, 0.108, 215.29866016618925, 0.00112402, 96.0836995782993
DataValue, 0.36000000000000004, 0, 0.0011576, 0.1112, 214.92743607463723, 0.0011576, 96.060815480304072
DataValue, 0.37, 0, 0.001197, 0.11492, 213.09941520467837, 0.001197, 96.00668337510443
DataValue, 0.38, 0, 0.0012346, 0.11868, 211.66369674388466, 0.0012346, 96.128300664182731
DataValue, 0.39, 0, 0.0012794, 0.12296, 208.7228388307019, 0.0012794, 96.107550414256679
DataValue, 0.4, 0, 0.0013214000000000001, 0.12675999999999998, 206.78068714999245, 0.0013214000000000001, 95.928560617526841
DataValue, 0.41000000000000003, 0, 0.0013596, 0.13044, 205.6192997940571, 0.0013596, 95.939982347749336
DataValue, 0.42000000000000004, 0, 0.001395, 0.13404, 204.989247311828, 0.001395, 96.086021505376337
DataValue, 0.43, 0, 0.0014386, 0.13828, 202.78048102321702, 0.0014386, 96.121228972612258
DataValue, 0.44, 0, 0.0014786, 0.14196, 201.56905180576217, 0.0014786, 96.009738942242663
DataValue, 0.45, 0, 0.0015246, 0.1456, 199.65892693165421, 0.0015246, 95.500459136822769
DataValue, 0.46, 0, 0.001565, 0.14992, 198.13418530351439, 0.001565, 95.795527156549525
DataValue, 0.47000000000000003, 0, 0.0015986, 0.15292, 198.34855498561242, 0.0015986, 95.65870136369324
DataValue, 0.48000000000000004, 0, 0.0016418000000000001, 0.15783999999999998, 196.22365696187114, 0.0016418000000000001, 96.138384699719808
DataValue, 0.49000000000000005, 0, 0.0016878, 0.1614, 194.69131413674612, 0.0016878, 95.627444009953777
DataValue, 0.5, 0, 0.0017224, 0.16544, 194.24059451927542, 0.0017224, 96.052020436600088
DataValue, 0.51, 0, 0.0017778, 0.17064, 190.8876139048262, 0.0017778, 95.983800202497463
DataValue, 0.52, 0, 0.0018188, 0.17392, 190.2793050362877, 0.0018188, 95.6234880140752
DataValue, 0.53, 0, 0.0018636, 0.17868, 188.51684910925093, 0.0018636, 95.87894397939472
DataValue, 0.54, 0, 0.0019046, 0.183, 187.44093247926077, 0.0019046, 96.083167069200883
DataValue, 0.55, 0, 0.0019618, 0.18847999999999998, 184.2797430930778, 0.0019618, 96.075033132837177
DataValue, 0.56, 0, 0.0020064, 0.19283999999999998, 182.99441786283893, 0.0020064, 96.112440191387549
DataValue, 0.57000000000000006, 0, 0.0020472, 0.19688, 182.25869480265732, 0.0020472, 96.1703790543181
DataValue, 0.58000000000000007, 0, 0.0020930000000000002, 0.20096, 181.09890109890111, 0.0020930000000000002, 96.015289058767308
DataValue, 0.59000000000000008, 0, 0.002146, 0.20559999999999998, 179.12395153774469, 0.002146, 95.806150978564759
DataValue, 0.6, 0, 0.0021934, 0.21036, 177.64201695997082, 0.0021934, 95.905899516732021
DataValue, 0.61, 0, 0.0022338, 0.21508, 176.79290894439967, 0.0022338, 96.284358492255336
DataValue, 0.62, 0, 0.0022768, 0.21855999999999998, 176.31763879128604, 0.0022768, 95.994378074490513
DataValue, 0.63, 0, 0.002332, 0.22372, 174.21955403087478, 0.002332, 95.934819897084054
DataValue, 0.64, 0, 0.0023778000000000002, 0.22852, 173.05071915215746, 0.0023778000000000002, 96.105643872487164
DataValue, 0.65, 0, 0.0024252, 0.2332, 171.86211446478643, 0.0024252, 96.157017977898718
DataValue, 0.66, 0, 0.0024736, 0.23604, 171.39391979301425, 0.0024736, 95.423673997412678
DataValue, 0.67, 0, 0.002522, 0.24251999999999999, 169.50039651070583, 0.002522, 96.161776367961934
DataValue, 0.68, 0, 0.0025618, 0.2462, 169.33406198766497, 0.0025618, 96.104301662893278
DataValue, 0.69000000000000006, 0, 0.0025986, 0.25068, 169.06026321865622, 0.0025986, 96.467328561533137
DataValue, 0.70000000000000007, 0, 0.0026552, 0.254, 167.97228080747215, 0.0026552, 95.661343778246462
DataValue, 0.71000000000000008, 0, 0.0027064, 0.25984, 166.33165829145733, 0.0027064, 96.009459060005923
DataValue, 0.72000000000000008, 0, 0.0027530000000000002, 0.26432, 165.5212495459499, 0.0027530000000000002, 96.011623683254626
DataValue, 0.73, 0, 0.0027964, 0.26799999999999996, 165.21241596338149, 0.0027964, 95.837505364039458
DataValue, 0.74, 0, 0.0028556000000000002, 0.27388, 163.23014427791006, 0.0028556000000000002, 95.909791287295135
DataValue, 0.75, 0, 0.0028872, 0.27704, 163.81269049598228, 0.0028872, 95.95455804932115
DataValue, 0.76, 0, 0.0029232, 0.2814, 163.72468527640942, 0.0029232, 96.264367816091948
DataValue, 0.77, 0, 0.0029592, 0.28531999999999996, 163.78751013787513, 0.0029592, 96.41795079751283
DataValue, 0.78, 0, 0.0030184, 0.291, 162.00636098595282, 0.0030184, 96.408693347468855
DataValue, 0.79, 0, 0.003069, 0.29528, 161.19908765070056, 0.003069, 96.213750407298789
DataValue, 0.8, 0, 0.0030934, 0.29732, 162.50080817223767, 0.0030934, 96.114307881295645
DataValue, 0.81, 0, 0.0031514, 0.30496, 160.25893253791966, 0.0031514, 96.769689661737644
DataValue, 0.82000000000000006, 0, 0.0032124000000000002, 0.31016, 158.70999875482505, 0.0032124000000000002, 96.550865396588208
DataValue, 0.83000000000000007, 0, 0.0032514, 0.31356, 158.8361936396629, 0.0032514, 96.438457279940948
DataValue, 0.84000000000000008, 0, 0.0033058000000000002, 0.31851999999999997, 157.74699013854442, 0.0033058000000000002, 96.351866416601112
DataValue, 0.85000000000000009, 0, 0.0033378, 0.3218, 158.24794775001502, 0.0033378, 96.410809515249554
DataValue, 0.86, 0, 0.0033656000000000003, 0.32328, 159.47230805799856, 0.0033656000000000003, 96.054195388637979
DataValue, 0.87, 0, 0.0034072, 0.33027999999999996, 158.40572904437661, 0.0034072, 96.9359004461141
DataValue, 0.88, 0, 0.0034734, 0.33504, 156.89526112742556, 0.0034734, 96.458801174641565
DataValue, 0.89, 0, 0.003517, 0.33936, 156.56525447824851, 0.003517, 96.491327836224045
DataValue, 0.9, 0, 0.0035522, 0.34371999999999997, 156.60154270592875, 0.0035522, 96.762569675130891
DataValue, 0.91, 0, 0.003586, 0.34668, 157.08867819297268, 0.003586, 96.675962074735068
DataValue, 0.92, 0, 0.0036364, 0.35087999999999997, 156.50643493565065, 0.0036364, 96.491035089649088
DataValue, 0.93, 0, 0.0036684, 0.35356, 157.1366263221023, 0.0036684, 96.379893141424049
DataValue, 0.94000000000000006, 0, 0.0036906, 0.35928, 157.35110822088552, 0.0036906, 97.350024386278648
DataValue, 0.95000000000000007, 0, 0.0037352, 0.36135999999999996, 157.59263225530094, 0.0037352, 96.744484900406931
DataValue, 0.96000000000000008, 0, 0.0037790000000000002, 0.36212, 158.21116697539031, 0.0037790000000000002, 95.82429214077797
DataValue, 0.97000000000000008, 0, 0.0037764, 0.3636, 160.57621014723017, 0.0037764, 96.28217349857006
DataValue, 0.98000000000000009, 0, 0.0037438000000000003, 0.36003999999999997, 165.59645280196591, 0.0037438000000000003, 96.169667183076
DataValue, 0.9900000000000001, 0, 0.00376, 0.36316, 166.71276595744683, 0.00376, 96.585106382978722
DataValue, 1, 0, 0.0037384000000000002, 0.36124, 170.86454098009844, 0.0037384000000000002, 96.629574149368707
DataValue, 1.01, 0, 0.0037288, 0.35768, 174.94099978545376, 0.0037288, 95.923621540441971
DataValue, 1.02, 0, 0.0036710000000000002, 0.35391999999999996, 181.44374829746661, 0.0036710000000000002, 96.409697630073538
DataValue, 1.03, 0, 0.0035918, 0.34287999999999996, 191.30241104738573, 0.0035918, 95.461885405646186
DataValue, 1.04, 0, 0.0035184, 0.32971999999999996, 201.87585266030013, 0.0035184, 93.713051386994067
DataValue, 1.05, 0, 0.0033372000000000002, 0.31876, 219.11782332494309, 0.0033372000000000002, 95.517200047944371
DataValue, 1.06, 0, 0.0032642, 0.3076, 230.50058207217697, 0.0032642, 94.234421910422142
DataValue, 1.07, 0, 0.0031236000000000002, 0.2966, 247.5989243180945, 0.0031236000000000002, 94.954539633755914
DataValue, 1.08, 0, 0.003097, 0.2968, 252.88989344526965, 0.003097, 95.834678721343238
DataValue, 1.09, 0, 0.0031244000000000003, 0.29603999999999997, 254.11599027013187, 0.0031244000000000003, 94.750992190500554
DataValue, 1.1, 0, 0.0029206, 0.29068, 277.107443675957, 0.0029206, 99.527494350475919
DataValue, 1.11, 0, 0.0029678, 0.28856, 276.78414987532858, 0.0029678, 97.230271581642967
DataValue, 1.12, 0, 0.0030186, 0.29531999999999997, 273.1994964553104, 0.0030186, 97.833432717153627
DataValue, 1.1300000000000001, 0, 0.0030054, 0.27688, 283.86238104744797, 0.0030054, 92.127503826445732
DataValue, 1.1400000000000001, 0, 0.0029126, 0.28015999999999996, 295.21389823525379, 0.0029126, 96.188972052461708
DataValue, 1.1500000000000001, 0, 0.0028556000000000002, 0.25995999999999997, 311.68230844656119, 0.0028556000000000002, 91.035158985852348
DataValue, 1.1600000000000001, 0, 0.0026466000000000003, 0.25628, 341.46452051688959, 0.0026466000000000003, 96.833673392276879
DataValue, 1.1700000000000002, 0, 0.002672, 0.25084, 343.99700598802406, 0.002672, 93.877245508982043
DataValue, 1.1800000000000002, 0, 0.002555, 0.23704, 369.0645792563601, 0.002555, 92.774951076320946
DataValue, 1.19, 0, 0.002589, 0.24564, 364.75859405175743, 0.002589, 94.878331402085735
DataValue, 1.2, 0, 0.0026834, 0.24903999999999998, 354.38622642915709, 0.0026834, 92.807632108519044
DataValue, 1.21, 0, 0.0025478000000000002, 0.23604, 382.27490383860578, 0.0025478000000000002, 92.644634586702239
DataValue, 1.22, 0, 0.0025108, 0.24492, 388.35430938346337, 0.0025108, 97.54659869364346
DataValue, 1.23, 0, 0.0026732, 0.25136, 366.09307197366451, 0.0026732, 94.029627412838536
DataValue, 1.24, 0, 0.0027642, 0.27976, 347.38441502062079, 0.0027642, 101.20830620070906
DataValue, 1.25, 0, 0.0033314, 0.30876, 282.53587080506696, 0.0033314, 92.681755418142515
DataValue, 1.26, 0, 0.0031462, 0.28252, 310.68590680821308, 0.0031462, 89.7972156887674
DataValue, 1.27, 0, 0.0033114, 0.30948, 290.06462523404, 0.0033114, 93.458959956513851
DataValue, 1.28, 0, 0.003545, 0.33936, 265.342736248237, 0.003545, 95.729196050775741
