
SetupTitle, DualRESET
PrimitiveTest, I/V Sweep
TestParameter, Context.MainFrame, B1500A
TestParameter, Channel.UnitType, SMU, SMU, SMU
TestParameter, Channel.Unit, SMU2:MP, SMU4:MP, SMU1:MP
TestParameter, Channel.IName, Irow, Icol, Igate
TestParameter, Channel.VName, Vrow, Vcol, Vgate
TestParameter, Channel.Mode, V, V, I
TestParameter, Channel.Func, VAR1, CONST, CONST
TestParameter, Channel.Index, 
TestParameter, Channel.Time, 
TestParameter, Measurement.Port.Unit, SMU2:MP, SMU4:MP, SMU1:MP
TestParameter, Measurement.Port.SeriesResistor, NONE, NONE, NONE
TestParameter, Measurement.Port.Filter, ON, ON, ON
TestParameter, Measurement.Port.OutputVoltageComparison, 0, 0, 0
TestParameter, Measurement.Primary.Locus, Double
TestParameter, Measurement.Primary.Scale, LINEAR
TestParameter, Measurement.Primary.Start, 0
TestParameter, Measurement.Primary.Stop, 1.3
TestParameter, Measurement.Primary.Step, 0.01
TestParameter, Measurement.Primary.Compliance, 0.004
TestParameter, Measurement.Primary.PowerCompliance, 0
TestParameter, Measurement.Aborting.Condition, CONTINUE AT ANY
TestParameter, Measurement.PostOutput.Value, START
TestParameter, Measurement.PostOutput.Retention, OFF
TestParameter, Measurement.Bias.Source, 0, 0, 1E-13
TestParameter, Measurement.Bias.Compliance, 0.004, 0.1, 10
TestParameter, Measurement.Monitor.Unit, SMU2:MP, SMU4:MP, SMU1:MP
TestParameter, Measurement.Monitor.Adc, HR ADC, HR ADC, HR ADC
TestParameter, Measurement.Monitor.Measurement, Compliance Side, Compliance Side, Compliance Side
TestParameter, Measurement.Monitor.RangingMode, LIMITED, LIMITED, LIMITED
TestParameter, Measurement.Monitor.RangeBoundary, 1nA, 1nA, 2V
TestParameter, Measurement.Monitor.RangeRating, BY FULL RANGE, BY FULL RANGE
TestParameter, Measurement.Monitor.RangeRatingCoeff, 50, 50
TestParameter, Measurement.Timing.Hold, 0
TestParameter, Measurement.Timing.Delay, 0
TestParameter, Measurement.Adc.HighSpeed.Mode, AUTO
TestParameter, Measurement.Adc.HighSpeed.Coeff, 1
TestParameter, Measurement.Adc.HighResolution.AutoZero, OFF
TestParameter, Measurement.Adc.HighResolution.Mode, AUTO
TestParameter, Measurement.Adc.HighResolution.Coeff, 6
TestParameter, Measurement.WaitTime.Source.Coeff, 1
TestParameter, Measurement.WaitTime.Source.Offset, 0
TestParameter, Measurement.WaitTime.Monitor.Coeff, 1
TestParameter, Measurement.WaitTime.Monitor.Offset, 0
TestParameter, Function.User.Name, R2, absIrow, R1
TestParameter, Function.User.Unit, ohm, A, ohm
TestParameter, Function.User.Definition, abs((Vrow-Vgate)/Irow), abs(Irow), abs(Vgate/Irow)
TestParameter, Output.Graph.Enabled, true
TestParameter, Output.Graph.AutoScaling, false
TestParameter, Output.Graph.XAxis.Data, Vrow
TestParameter, Output.Graph.XAxis.Scale, Linear
TestParameter, Output.Graph.XAxis.Left, 0
TestParameter, Output.Graph.XAxis.Right, 1.5
TestParameter, Output.Graph.XAxis.RunTimeAutoScale, true
TestParameter, Output.Graph.YAxis.Data, absIrow, Vgate
TestParameter, Output.Graph.YAxis.Scale, Linear, Linear
TestParameter, Output.Graph.YAxis.Bottom, 0, -0.1
TestParameter, Output.Graph.YAxis.Top, 1, 0.1
TestParameter, Output.Graph.YAxis.Group, , 
TestParameter, Output.Graph.YAxis.RunTimeAutoScale, true, true
TestParameter, Output.List.Data, Vrow, Vcol, R1, R2, Vgate, Irow
TestParameter, AutoAnalysis.Interpolation, false
TestParameter, AutoAnalysis.Line1.Enabled, false
TestParameter, AutoAnalysis.Line1.Type, 1
TestParameter, AutoAnalysis.Line1.Fix, True
TestParameter, AutoAnalysis.Line1.YAxis, 0
TestParameter, AutoAnalysis.Line1.Point1.Type, 0
TestParameter, AutoAnalysis.Line1.Point1.XY.X, 
TestParameter, AutoAnalysis.Line1.Point1.XY.Y, 
TestParameter, AutoAnalysis.Line1.Point1.Data.Var, 
TestParameter, AutoAnalysis.Line1.Point1.Data.Condition, 
TestParameter, AutoAnalysis.Line1.Point1.Data.Start, false
TestParameter, AutoAnalysis.Line1.Point1.Data.StartVar, 
TestParameter, AutoAnalysis.Line1.Point1.Data.StartCondition, 
TestParameter, AutoAnalysis.Line1.Point2.Type, 0
TestParameter, AutoAnalysis.Line1.Point2.XY.X, 
TestParameter, AutoAnalysis.Line1.Point2.XY.Y, 
TestParameter, AutoAnalysis.Line1.Point2.Data.Var, 
TestParameter, AutoAnalysis.Line1.Point2.Data.Condition, 
TestParameter, AutoAnalysis.Line1.Point2.Data.Start, false
TestParameter, AutoAnalysis.Line1.Point2.Data.StartVar, 
TestParameter, AutoAnalysis.Line1.Point2.Data.StartCondition, 
TestParameter, AutoAnalysis.Line1.GradientExpr, 0
TestParameter, AutoAnalysis.Line2.Enabled, false
TestParameter, AutoAnalysis.Line2.Type, 1
TestParameter, AutoAnalysis.Line2.Fix, True
TestParameter, AutoAnalysis.Line2.YAxis, 0
TestParameter, AutoAnalysis.Line2.Point1.Type, 0
TestParameter, AutoAnalysis.Line2.Point1.XY.X, 
TestParameter, AutoAnalysis.Line2.Point1.XY.Y, 
TestParameter, AutoAnalysis.Line2.Point1.Data.Var, 
TestParameter, AutoAnalysis.Line2.Point1.Data.Condition, 
TestParameter, AutoAnalysis.Line2.Point1.Data.Start, false
TestParameter, AutoAnalysis.Line2.Point1.Data.StartVar, 
TestParameter, AutoAnalysis.Line2.Point1.Data.StartCondition, 
TestParameter, AutoAnalysis.Line2.Point2.Type, 0
TestParameter, AutoAnalysis.Line2.Point2.XY.X, 
TestParameter, AutoAnalysis.Line2.Point2.XY.Y, 
TestParameter, AutoAnalysis.Line2.Point2.Data.Var, 
TestParameter, AutoAnalysis.Line2.Point2.Data.Condition, 
TestParameter, AutoAnalysis.Line2.Point2.Data.Start, false
TestParameter, AutoAnalysis.Line2.Point2.Data.StartVar, 
TestParameter, AutoAnalysis.Line2.Point2.Data.StartCondition, 
TestParameter, AutoAnalysis.Line2.GradientExpr, 0
TestParameter, AutoAnalysis.Marker.Enabled, false
TestParameter, AutoAnalysis.Marker.Data.Var, 
TestParameter, AutoAnalysis.Marker.Data.Condition, 
TestParameter, AutoAnalysis.Marker.Data.Start, false
TestParameter, AutoAnalysis.Marker.Data.StartVar, 
TestParameter, AutoAnalysis.Marker.Data.StartCondition, 
MetaData, TestRecord.EntryPoint, true
MetaData, TestRecord.RecordTime, 03/21/2019 19:09:42
MetaData, TestRecord.TestTarget, 3,4
MetaData, TestRecord.IterationIndex, 1
MetaData, TestRecord.Preservation, true
MetaData, TestRecord.Flag, 
MetaData, TestRecord.Remarks, 
MetaData, TestRecord.LinkKey, aeb20c91-7b13-44c9-9435-1b4e8a7badd7
Dimension1, 262, 262, 262, 262, 262, 262, 262
Dimension2, 1, 1, 1, 1, 1, 1, 1
DataName, Vrow, Vcol, Irow, Vgate, R2, absIrow, R1
DataValue, 0, 0, -6.3560000000000006E-10, 3.9999999999999996E-05, 62932.66205160477, 6.3560000000000006E-10, 62932.66205160477
DataValue, 0.01, 0, 2.428E-07, 0.00996, 164.74464579901198, 2.428E-07, 41021.416803953878
DataValue, 0.02, 0, 4.862E-07, 0.01992, 164.54134101192969, 4.862E-07, 40970.793911970381
DataValue, 0.030000000000000002, 0, 7.3334E-07, 0.03, 4.7310210161093278E-12, 7.3334E-07, 40908.719011645349
DataValue, 0.04, 0, 9.6794E-07, 0.03984, 165.29950203525056, 9.6794E-07, 41159.576006777286
DataValue, 0.05, 0, 1.2181E-06, 0.0498, 164.1901321730611, 1.2181E-06, 40883.342911091037
DataValue, 0.060000000000000005, 0, 1.4488000000000002E-06, 0.059719999999999995, 193.26339039205504, 1.4488000000000002E-06, 41220.320265046925
DataValue, 0.07, 0, 1.7138000000000002E-06, 0.06964, 210.05951686311883, 1.7138000000000002E-06, 40634.846539852952
DataValue, 0.08, 0, 1.9841E-06, 0.07968, 161.28219343783115, 1.9841E-06, 40159.266166019857
DataValue, 0.090000000000000011, 0, 2.256E-06, 0.08964, 159.57446808511219, 2.256E-06, 39734.042553191488
DataValue, 0.1, 0, 2.4991000000000003E-06, 0.09956, 176.06338281781831, 2.4991000000000003E-06, 39838.341803049094
DataValue, 0.11, 0, 2.7456000000000004E-06, 0.10944, 203.96270396270572, 2.7456000000000004E-06, 39860.139860139854
DataValue, 0.12000000000000001, 0, 3.0813000000000005E-06, 0.11947999999999999, 168.75993898679789, 3.0813000000000005E-06, 38775.841365657339
DataValue, 0.13, 0, 3.3535E-06, 0.1294, 178.91754882958614, 3.3535E-06, 38586.551364246305
DataValue, 0.14, 0, 3.4937000000000005E-06, 0.13935999999999998, 183.18687923978285, 3.4937000000000005E-06, 39888.942954460879
DataValue, 0.15, 0, 3.8854E-06, 0.14928, 185.30910588356369, 3.8854E-06, 38420.754619858955
DataValue, 0.16, 0, 4.262E-06, 0.15932, 159.54950727358374, 4.262E-06, 37381.511027686531
DataValue, 0.17, 0, 4.5068000000000006E-06, 0.1692, 177.50954113784121, 4.5068000000000006E-06, 37543.267950652342
DataValue, 0.18000000000000002, 0, 4.8020000000000008E-06, 0.17915999999999999, 174.9271137026312, 4.8020000000000008E-06, 37309.454394002489
DataValue, 0.19, 0, 5.0871000000000008E-06, 0.18908, 180.84959996854869, 5.0871000000000008E-06, 37168.524306579384
DataValue, 0.2, 0, 5.5439E-06, 0.19904, 173.16329659626189, 5.5439E-06, 35902.523494291017
DataValue, 0.21000000000000002, 0, 5.8079000000000008E-06, 0.20895999999999998, 179.06644398148052, 5.8079000000000008E-06, 35978.580898431435
DataValue, 0.22, 0, 6.2889000000000009E-06, 0.21888, 178.09155814212497, 6.2889000000000009E-06, 34804.178791203543
DataValue, 0.23, 0, 6.6466000000000009E-06, 0.2288, 180.54343574158312, 6.6466000000000009E-06, 34423.615081394993
DataValue, 0.24000000000000002, 0, 7.1212000000000005E-06, 0.23864, 190.97904847498003, 7.1212000000000005E-06, 33511.205976520811
DataValue, 0.25, 0, 7.569500000000001E-06, 0.24864, 179.66840610344144, 7.569500000000001E-06, 32847.612127617409
DataValue, 0.26, 0, 7.8398E-06, 0.2586, 178.57598408122811, 7.8398E-06, 32985.53534528942
DataValue, 0.27, 0, 8.3679000000000017E-06, 0.26848, 181.64653019276295, 8.3679000000000017E-06, 32084.513438258098
DataValue, 0.28, 0, 8.971000000000001E-06, 0.27843999999999997, 173.89365734032563, 8.971000000000001E-06, 31037.788429383563
DataValue, 0.29000000000000004, 0, 9.4949000000000012E-06, 0.28836, 172.72430462669749, 9.4949000000000012E-06, 30369.988098874128
DataValue, 0.3, 0, 1.0087400000000001E-05, 0.29824, 174.4750877332101, 1.0087400000000001E-05, 29565.59668497333
DataValue, 0.31, 0, 1.05601E-05, 0.3082, 170.45293131694052, 1.05601E-05, 29185.329684377983
DataValue, 0.32, 0, 1.1031100000000002E-05, 0.318, 181.30558149232638, 1.1031100000000002E-05, 28827.587457279868
DataValue, 0.33, 0, 1.1606E-05, 0.32799999999999996, 172.32465965880209, 1.1606E-05, 28261.244184042731
DataValue, 0.34, 0, 1.2314000000000001E-05, 0.33776, 181.90677277895239, 1.2314000000000001E-05, 27428.94266688322
DataValue, 0.35000000000000003, 0, 1.2924E-05, 0.34768, 179.51098731043362, 1.2924E-05, 26901.887960383781
DataValue, 0.36000000000000004, 0, 1.397E-05, 0.35752, 177.52326413744007, 1.397E-05, 25591.982820329278
DataValue, 0.37, 0, 1.4978000000000001E-05, 0.36735999999999996, 176.25851248498003, 1.4978000000000001E-05, 24526.639070636931
DataValue, 0.38, 0, 1.55E-05, 0.3772, 180.64516129032415, 1.55E-05, 24335.483870967739
DataValue, 0.39, 0, 1.666E-05, 0.38695999999999997, 182.47298919568084, 1.666E-05, 23226.89075630252
DataValue, 0.4, 0, 1.744E-05, 0.39683999999999997, 181.19266055046168, 1.744E-05, 22754.5871559633
DataValue, 0.41000000000000003, 0, 1.8394E-05, 0.40671999999999997, 178.31901707078725, 1.8394E-05, 22111.558116777207
DataValue, 0.42000000000000004, 0, 1.9236E-05, 0.41656, 178.831357870662, 1.9236E-05, 21655.229777500517
DataValue, 0.43, 0, 2.0148E-05, 0.42644, 176.6924756799686, 2.0148E-05, 21165.376216001587
DataValue, 0.44, 0, 2.1294E-05, 0.43612, 182.21095144172043, 2.1294E-05, 20480.886634732789
DataValue, 0.45, 0, 2.209E-05, 0.44608, 177.45586238116951, 2.209E-05, 20193.752829334539
DataValue, 0.46, 0, 2.302E-05, 0.45583999999999997, 180.71242397915086, 2.302E-05, 19801.91138140747
DataValue, 0.47000000000000003, 0, 2.4336000000000002E-05, 0.46571999999999997, 175.87113740960146, 2.4336000000000002E-05, 19137.080867850094
DataValue, 0.48000000000000004, 0, 2.693E-05, 0.47512, 181.210545859638, 2.693E-05, 17642.777571481616
DataValue, 0.49000000000000005, 0, 2.845E-05, 0.48488, 179.96485061511666, 2.845E-05, 17043.233743409488
DataValue, 0.5, 0, 2.858E-05, 0.49491999999999997, 177.74667599720183, 2.858E-05, 17317.004898530438
DataValue, 0.51, 0, 2.9866000000000002E-05, 0.50464, 179.46829170294083, 2.9866000000000002E-05, 16896.805732270808
DataValue, 0.52, 0, 2.9562000000000003E-05, 0.51479999999999992, 175.90149516271202, 2.9562000000000003E-05, 17414.248021108175
DataValue, 0.53, 0, 3.0482E-05, 0.52452, 179.77822977495046, 3.0482E-05, 17207.532314152613
DataValue, 0.54, 0, 3.1734E-05, 0.53432, 178.9878363899924, 3.1734E-05, 16837.461397869793
DataValue, 0.55, 0, 3.2634E-05, 0.54411999999999994, 180.18018018018347, 3.2634E-05, 16673.40810197953
DataValue, 0.56, 0, 3.4534E-05, 0.55404, 172.5835408582868, 3.4534E-05, 16043.319627034227
DataValue, 0.57000000000000006, 0, 3.6898E-05, 0.56348, 176.70334435470977, 3.6898E-05, 15271.288416716354
DataValue, 0.58000000000000007, 0, 3.914E-05, 0.57272, 185.99897802759489, 3.914E-05, 14632.600919775166
DataValue, 0.59000000000000008, 0, 3.9102E-05, 0.583, 179.01897601146021, 3.9102E-05, 14909.723287811365
DataValue, 0.6, 0, 3.9864E-05, 0.5928, 180.6140878988557, 3.9864E-05, 14870.559903672485
DataValue, 0.61, 0, 4.2362E-05, 0.60239999999999994, 179.40607147915705, 4.2362E-05, 14220.291770926773
DataValue, 0.62, 0, 4.3306E-05, 0.61203999999999992, 183.8082482796859, 4.3306E-05, 14132.914607675608
DataValue, 0.63, 0, 4.3734E-05, 0.62215999999999994, 179.26555997622145, 4.3734E-05, 14226.002652398591
DataValue, 0.64, 0, 5.5E-05, 0.63076, 168.00000000000046, 5.5E-05, 11468.363636363636
DataValue, 0.65, 0, 5.105E-05, 0.64103999999999994, 175.514201762979, 5.105E-05, 12557.100881488736
DataValue, 0.66, 0, 5.3596E-05, 0.65023999999999993, 182.10314202552618, 5.3596E-05, 12132.248675274273
DataValue, 0.67, 0, 5.7346E-05, 0.65952, 182.7503226031466, 5.7346E-05, 11500.71495832316
DataValue, 0.68, 0, 6.4576E-05, 0.66884, 172.81962338949546, 6.4576E-05, 10357.408325074332
DataValue, 0.69000000000000006, 0, 6.9508E-05, 0.67764, 177.82125798469295, 6.9508E-05, 9749.0936295102729
DataValue, 0.70000000000000007, 0, 7.0484E-05, 0.68704, 183.87151694001594, 7.0484E-05, 9747.4604165484361
DataValue, 0.71000000000000008, 0, 7.3864E-05, 0.69675999999999993, 179.24834831582558, 7.3864E-05, 9433.01202209466
DataValue, 0.72000000000000008, 0, 0.00192, 0.36884, 182.89583333333337, 0.00192, 192.10416666666666
DataValue, 0.73, 0, 0.0020304, 0.36463999999999996, 179.94483845547677, 0.0020304, 179.59022852639873
DataValue, 0.74, 0, 0.0020874, 0.36447999999999997, 179.89843824853887, 0.0020874, 174.60956213471303
DataValue, 0.75, 0, 0.0021446, 0.36524, 179.40874755199104, 0.0021446, 170.30681712207405
DataValue, 0.76, 0, 0.0021986, 0.36684, 178.82288729191302, 0.0021986, 166.85163285727279
DataValue, 0.77, 0, 0.0022426, 0.36791999999999997, 179.29189333808975, 0.0022426, 164.05957370908766
DataValue, 0.78, 0, 0.0022912, 0.3702, 178.8582402234637, 0.0022912, 161.57472067039103
DataValue, 0.79, 0, 0.0023372, 0.37091999999999997, 179.30857436248505, 0.0023372, 158.7027212048605
DataValue, 0.8, 0, 0.0023846, 0.37267999999999996, 179.19986580558586, 0.0023846, 156.28616958819086
DataValue, 0.81, 0, 0.0024348, 0.37428, 178.95515032035488, 0.0024348, 153.72104484967966
DataValue, 0.82000000000000006, 0, 0.002484, 0.37576, 178.84057971014497, 0.002484, 151.27214170692432
DataValue, 0.83000000000000007, 0, 0.0025356000000000003, 0.37704, 178.64016406373247, 0.0025356000000000003, 148.69853289162327
DataValue, 0.84000000000000008, 0, 0.0025884000000000002, 0.3776, 178.64317725235668, 0.0025884000000000002, 145.88162571472722
DataValue, 0.85000000000000009, 0, 0.002646, 0.37736, 178.62433862433866, 0.002646, 142.61526832955403
DataValue, 0.86, 0, 0.0027194, 0.3766, 177.75979995587264, 0.0027194, 138.48643083033022
DataValue, 0.87, 0, 0.002771, 0.37751999999999997, 177.72645254420789, 0.002771, 136.23962468422951
DataValue, 0.88, 0, 0.002824, 0.37892, 177.43626062322943, 0.002824, 134.17847025495749
DataValue, 0.89, 0, 0.0028716, 0.38188, 176.94664995124668, 0.0028716, 132.985095417189
DataValue, 0.9, 0, 0.0029286, 0.38404, 176.17974458785767, 0.0029286, 131.13433039677662
DataValue, 0.91, 0, 0.0029842000000000002, 0.38572, 175.68527578580526, 0.0029842000000000002, 129.25407144293277
DataValue, 0.92, 0, 0.0030322, 0.38748, 175.62166084031398, 0.0030322, 127.78840445880879
DataValue, 0.93, 0, 0.0030826, 0.38899999999999996, 175.50120028547335, 0.0030826, 126.19217543631997
DataValue, 0.94000000000000006, 0, 0.0031376, 0.39139999999999997, 174.84701682814892, 0.0031376, 124.74502804691483
DataValue, 0.95000000000000007, 0, 0.0031952, 0.3948, 173.76064096144219, 0.0031952, 123.56034051076614
DataValue, 0.96000000000000008, 0, 0.0032530000000000002, 0.39712, 173.0341223486013, 0.0032530000000000002, 122.07808177067321
DataValue, 0.97000000000000008, 0, 0.0033226, 0.4018, 171.01065430686811, 0.0033226, 120.92939264431469
DataValue, 0.98000000000000009, 0, 0.003394, 0.4032, 169.94696523276375, 0.003394, 118.79787860931056
DataValue, 0.9900000000000001, 0, 0.0034566, 0.40536, 169.13730255164035, 0.0034566, 117.2713070647457
DataValue, 1, 0, 0.003512, 0.40792, 168.58769931662869, 0.003512, 116.15034168564921
DataValue, 1.01, 0, 0.0035666, 0.41056, 168.07043122301351, 0.0035666, 115.1124320080749
DataValue, 1.02, 0, 0.0036296, 0.41312, 167.20299757549043, 0.0036296, 113.8197046506502
DataValue, 1.03, 0, 0.0036788, 0.41552, 167.03272806349898, 0.0036788, 112.94987495922584
DataValue, 1.04, 0, 0.003747, 0.41447999999999996, 166.93888444088606, 0.003747, 110.61649319455563
DataValue, 1.05, 0, 0.0038186, 0.4168, 165.81993400722777, 0.0038186, 109.14995024354475
DataValue, 1.06, 0, 0.003889, 0.42203999999999997, 164.0421702237079, 0.003889, 108.52147081511956
DataValue, 1.07, 0, 0.0039374, 0.42284, 164.36226951795604, 0.0039374, 107.39066388987658
DataValue, 1.08, 0, 0.0040004, 0.42563999999999996, 163.57364263573643, 0.0040004, 106.39936006399358
DataValue, 1.09, 0, 0.0040004, 0.42235999999999996, 166.89331066893311, 0.0040004, 105.5794420557944
DataValue, 1.1, 0, 0.0040004, 0.41975999999999997, 170.04299570043, 0.0040004, 104.92950704929505
DataValue, 1.11, 0, 0.0040006, 0.41888, 172.754086886967, 0.0040006, 104.70429435584661
DataValue, 1.12, 0, 0.0040006, 0.41772, 175.54366844973256, 0.0040006, 104.41433784932259
DataValue, 1.1300000000000001, 0, 0.0039758, 0.40512, 182.32305447960164, 0.0039758, 101.89647366567735
DataValue, 1.1400000000000001, 0, 0.0015206, 0.11631999999999999, 673.20794423253983, 0.0015206, 76.496119952650261
DataValue, 1.1500000000000001, 0, 0.0010544, 0.10575999999999999, 990.36418816388471, 0.0010544, 100.30349013657055
DataValue, 1.1600000000000001, 0, 0.0010838, 0.10432, 974.05425355231614, 0.0010838, 96.253921387709909
DataValue, 1.1700000000000002, 0, 0.0010928, 0.11072, 969.32650073206457, 0.0010928, 101.31771595900437
DataValue, 1.1800000000000002, 0, 0.0010508, 0.10556, 1022.4971450323565, 0.0010508, 100.45679482299201
DataValue, 1.19, 0, 0.00108, 0.10328, 1006.2222222222222, 0.00108, 95.629629629629619
DataValue, 1.2, 0, 0.00091536, 0.09296, 1209.403950358329, 0.00091536, 101.55567208529978
DataValue, 1.21, 0, 0.0008593, 0.08856, 1305.0622599790527, 0.0008593, 103.060630745956
DataValue, 1.22, 0, 0.00090874, 0.08892, 1244.6684420186191, 0.00090874, 97.849770011224336
DataValue, 1.23, 0, 0.00093172, 0.08988, 1223.6723479156829, 0.00093172, 96.466749667282016
DataValue, 1.24, 0, 0.0010234, 0.10028, 1113.6603478600744, 0.0010234, 97.987101817471171
DataValue, 1.25, 0, 0.0010062, 0.10048, 1142.4368912741006, 0.0010062, 99.860862651560325
DataValue, 1.26, 0, 0.00094112, 0.0896, 1243.6246174770488, 0.00094112, 95.205712342740554
DataValue, 1.27, 0, 0.0008871, 0.08796, 1332.4766091759666, 0.0008871, 99.154548528914432
DataValue, 1.28, 0, 0.00087872, 0.08836, 1356.1088856518572, 0.00087872, 100.55535324107792
DataValue, 1.29, 0, 0.00092012000000000007, 0.08988, 1304.3081337216884, 0.00092012000000000007, 97.682910924662
