
SetupTitle, DualRESET
PrimitiveTest, I/V Sweep
TestParameter, Context.MainFrame, B1500A
TestParameter, Channel.UnitType, SMU, SMU, SMU
TestParameter, Channel.Unit, SMU2:MP, SMU4:MP, SMU1:MP
TestParameter, Channel.IName, Irow, Icol, Igate
TestParameter, Channel.VName, Vrow, Vcol, Vgate
TestParameter, Channel.Mode, V, V, I
TestParameter, Channel.Func, VAR1, CONST, CONST
TestParameter, Channel.Index, 
TestParameter, Channel.Time, 
TestParameter, Measurement.Port.Unit, SMU2:MP, SMU4:MP, SMU1:MP
TestParameter, Measurement.Port.SeriesResistor, NONE, NONE, NONE
TestParameter, Measurement.Port.Filter, ON, ON, ON
TestParameter, Measurement.Port.OutputVoltageComparison, 0, 0, 0
TestParameter, Measurement.Primary.Locus, Double
TestParameter, Measurement.Primary.Scale, LINEAR
TestParameter, Measurement.Primary.Start, 0
TestParameter, Measurement.Primary.Stop, 1.3
TestParameter, Measurement.Primary.Step, 0.01
TestParameter, Measurement.Primary.Compliance, 0.004
TestParameter, Measurement.Primary.PowerCompliance, 0
TestParameter, Measurement.Aborting.Condition, CONTINUE AT ANY
TestParameter, Measurement.PostOutput.Value, START
TestParameter, Measurement.PostOutput.Retention, OFF
TestParameter, Measurement.Bias.Source, 0, 0, 1E-13
TestParameter, Measurement.Bias.Compliance, 0.004, 0.1, 10
TestParameter, Measurement.Monitor.Unit, SMU2:MP, SMU4:MP, SMU1:MP
TestParameter, Measurement.Monitor.Adc, HR ADC, HR ADC, HR ADC
TestParameter, Measurement.Monitor.Measurement, Compliance Side, Compliance Side, Compliance Side
TestParameter, Measurement.Monitor.RangingMode, LIMITED, LIMITED, LIMITED
TestParameter, Measurement.Monitor.RangeBoundary, 1nA, 1nA, 2V
TestParameter, Measurement.Monitor.RangeRating, BY FULL RANGE, BY FULL RANGE
TestParameter, Measurement.Monitor.RangeRatingCoeff, 50, 50
TestParameter, Measurement.Timing.Hold, 0
TestParameter, Measurement.Timing.Delay, 0
TestParameter, Measurement.Adc.HighSpeed.Mode, AUTO
TestParameter, Measurement.Adc.HighSpeed.Coeff, 1
TestParameter, Measurement.Adc.HighResolution.AutoZero, OFF
TestParameter, Measurement.Adc.HighResolution.Mode, AUTO
TestParameter, Measurement.Adc.HighResolution.Coeff, 6
TestParameter, Measurement.WaitTime.Source.Coeff, 1
TestParameter, Measurement.WaitTime.Source.Offset, 0
TestParameter, Measurement.WaitTime.Monitor.Coeff, 1
TestParameter, Measurement.WaitTime.Monitor.Offset, 0
TestParameter, Function.User.Name, R2, absIrow, R1
TestParameter, Function.User.Unit, ohm, A, ohm
TestParameter, Function.User.Definition, abs((Vrow-Vgate)/Irow), abs(Irow), abs(Vgate/Irow)
TestParameter, Output.Graph.Enabled, true
TestParameter, Output.Graph.AutoScaling, false
TestParameter, Output.Graph.XAxis.Data, Vrow
TestParameter, Output.Graph.XAxis.Scale, Linear
TestParameter, Output.Graph.XAxis.Left, 0
TestParameter, Output.Graph.XAxis.Right, 1.5
TestParameter, Output.Graph.XAxis.RunTimeAutoScale, true
TestParameter, Output.Graph.YAxis.Data, absIrow, Vgate
TestParameter, Output.Graph.YAxis.Scale, Linear, Linear
TestParameter, Output.Graph.YAxis.Bottom, 0, -0.1
TestParameter, Output.Graph.YAxis.Top, 1, 0.1
TestParameter, Output.Graph.YAxis.Group, , 
TestParameter, Output.Graph.YAxis.RunTimeAutoScale, true, true
TestParameter, Output.List.Data, Vrow, Vcol, R1, R2, Vgate, Irow
TestParameter, AutoAnalysis.Interpolation, false
TestParameter, AutoAnalysis.Line1.Enabled, false
TestParameter, AutoAnalysis.Line1.Type, 1
TestParameter, AutoAnalysis.Line1.Fix, True
TestParameter, AutoAnalysis.Line1.YAxis, 0
TestParameter, AutoAnalysis.Line1.Point1.Type, 0
TestParameter, AutoAnalysis.Line1.Point1.XY.X, 
TestParameter, AutoAnalysis.Line1.Point1.XY.Y, 
TestParameter, AutoAnalysis.Line1.Point1.Data.Var, 
TestParameter, AutoAnalysis.Line1.Point1.Data.Condition, 
TestParameter, AutoAnalysis.Line1.Point1.Data.Start, false
TestParameter, AutoAnalysis.Line1.Point1.Data.StartVar, 
TestParameter, AutoAnalysis.Line1.Point1.Data.StartCondition, 
TestParameter, AutoAnalysis.Line1.Point2.Type, 0
TestParameter, AutoAnalysis.Line1.Point2.XY.X, 
TestParameter, AutoAnalysis.Line1.Point2.XY.Y, 
TestParameter, AutoAnalysis.Line1.Point2.Data.Var, 
TestParameter, AutoAnalysis.Line1.Point2.Data.Condition, 
TestParameter, AutoAnalysis.Line1.Point2.Data.Start, false
TestParameter, AutoAnalysis.Line1.Point2.Data.StartVar, 
TestParameter, AutoAnalysis.Line1.Point2.Data.StartCondition, 
TestParameter, AutoAnalysis.Line1.GradientExpr, 0
TestParameter, AutoAnalysis.Line2.Enabled, false
TestParameter, AutoAnalysis.Line2.Type, 1
TestParameter, AutoAnalysis.Line2.Fix, True
TestParameter, AutoAnalysis.Line2.YAxis, 0
TestParameter, AutoAnalysis.Line2.Point1.Type, 0
TestParameter, AutoAnalysis.Line2.Point1.XY.X, 
TestParameter, AutoAnalysis.Line2.Point1.XY.Y, 
TestParameter, AutoAnalysis.Line2.Point1.Data.Var, 
TestParameter, AutoAnalysis.Line2.Point1.Data.Condition, 
TestParameter, AutoAnalysis.Line2.Point1.Data.Start, false
TestParameter, AutoAnalysis.Line2.Point1.Data.StartVar, 
TestParameter, AutoAnalysis.Line2.Point1.Data.StartCondition, 
TestParameter, AutoAnalysis.Line2.Point2.Type, 0
TestParameter, AutoAnalysis.Line2.Point2.XY.X, 
TestParameter, AutoAnalysis.Line2.Point2.XY.Y, 
TestParameter, AutoAnalysis.Line2.Point2.Data.Var, 
TestParameter, AutoAnalysis.Line2.Point2.Data.Condition, 
TestParameter, AutoAnalysis.Line2.Point2.Data.Start, false
TestParameter, AutoAnalysis.Line2.Point2.Data.StartVar, 
TestParameter, AutoAnalysis.Line2.Point2.Data.StartCondition, 
TestParameter, AutoAnalysis.Line2.GradientExpr, 0
TestParameter, AutoAnalysis.Marker.Enabled, false
TestParameter, AutoAnalysis.Marker.Data.Var, 
TestParameter, AutoAnalysis.Marker.Data.Condition, 
TestParameter, AutoAnalysis.Marker.Data.Start, false
TestParameter, AutoAnalysis.Marker.Data.StartVar, 
TestParameter, AutoAnalysis.Marker.Data.StartCondition, 
MetaData, TestRecord.EntryPoint, true
MetaData, TestRecord.RecordTime, 03/21/2019 18:42:21
MetaData, TestRecord.TestTarget, 3,4
MetaData, TestRecord.IterationIndex, 1
MetaData, TestRecord.Preservation, true
MetaData, TestRecord.Flag, 
MetaData, TestRecord.Remarks, 
MetaData, TestRecord.LinkKey, 6f187af3-492d-4581-ac83-cfef515d88f7
Dimension1, 262, 262, 262, 262, 262, 262, 262
Dimension2, 1, 1, 1, 1, 1, 1, 1
DataName, Vrow, Vcol, Irow, Vgate, R2, absIrow, R1
DataValue, 0, 0, -1.0076000000000001E-09, 0, -0, 1.0076000000000001E-09, -0
DataValue, 0.01, 0, 5.157E-07, 0.00984, 310.25790188093936, 5.157E-07, 19080.860965677719
DataValue, 0.02, 0, 1.03828E-06, 0.0196, 385.25253303540575, 1.03828E-06, 18877.374118734831
DataValue, 0.030000000000000002, 0, 1.571E-06, 0.029599999999999998, 254.61489497135869, 1.571E-06, 18841.50222788033
DataValue, 0.04, 0, 2.0901E-06, 0.0394, 287.06760442084266, 2.0901E-06, 18850.772690301896
DataValue, 0.05, 0, 2.6294E-06, 0.04928, 273.82672853122585, 2.6294E-06, 18741.91830835932
DataValue, 0.060000000000000005, 0, 3.1251000000000004E-06, 0.05912, 281.59098908835097, 3.1251000000000004E-06, 18917.794630571818
DataValue, 0.07, 0, 3.7038000000000004E-06, 0.068999999999999992, 269.9929801825192, 3.7038000000000004E-06, 18629.51563259355
DataValue, 0.08, 0, 4.2523000000000008E-06, 0.078879999999999992, 263.38687298638609, 4.2523000000000008E-06, 18549.961197469598
DataValue, 0.090000000000000011, 0, 4.8038000000000005E-06, 0.08872, 266.45572255298248, 4.8038000000000005E-06, 18468.712269453346
DataValue, 0.1, 0, 5.396200000000001E-06, 0.09848, 281.67970053000391, 5.396200000000001E-06, 18249.8795448649
DataValue, 0.11, 0, 5.9825000000000007E-06, 0.10836, 274.13288758880105, 5.9825000000000007E-06, 18112.829084830755
DataValue, 0.12000000000000001, 0, 6.5137000000000008E-06, 0.11824, 270.19973287072037, 6.5137000000000008E-06, 18152.50932649646
DataValue, 0.13, 0, 7.0474000000000005E-06, 0.12808, 272.44090019014175, 7.0474000000000005E-06, 18174.078383517324
DataValue, 0.14, 0, 7.6935E-06, 0.13792, 270.35809449535662, 7.6935E-06, 17926.821342691881
DataValue, 0.15, 0, 8.2354E-06, 0.1478, 267.13942249314027, 8.2354E-06, 17946.912111129997
DataValue, 0.16, 0, 8.9238000000000009E-06, 0.15764, 264.46132813375476, 8.9238000000000009E-06, 17665.12024025639
DataValue, 0.17, 0, 9.5306000000000016E-06, 0.16735999999999998, 277.00249721948575, 9.5306000000000016E-06, 17560.279520701733
DataValue, 0.18000000000000002, 0, 1.01699E-05, 0.17723999999999998, 271.3890992045192, 1.01699E-05, 17427.899979350826
DataValue, 0.19, 0, 1.0833800000000001E-05, 0.18703999999999998, 273.21899979693347, 1.0833800000000001E-05, 17264.487068249364
DataValue, 0.2, 0, 1.1808000000000001E-05, 0.19676, 274.39024390244077, 1.1808000000000001E-05, 16663.279132791326
DataValue, 0.21000000000000002, 0, 1.2654000000000001E-05, 0.20659999999999998, 268.68974237395616, 1.2654000000000001E-05, 16326.853168958429
DataValue, 0.22, 0, 1.3322E-05, 0.21631999999999999, 276.23479957964395, 1.3322E-05, 16237.802131812039
DataValue, 0.23, 0, 1.3786E-05, 0.22632, 266.93747279849242, 1.3786E-05, 16416.654577107209
DataValue, 0.24000000000000002, 0, 1.4718E-05, 0.23592, 277.21157766001005, 1.4718E-05, 16029.351814105175
DataValue, 0.25, 0, 1.5462000000000002E-05, 0.24572, 276.80765748286154, 1.5462000000000002E-05, 15891.863924459964
DataValue, 0.26, 0, 1.6192E-05, 0.25556, 274.20948616600788, 1.6192E-05, 15783.10276679842
DataValue, 0.27, 0, 1.6824E-05, 0.26536, 275.79648121731054, 1.6824E-05, 15772.705658582976
DataValue, 0.28, 0, 1.7884E-05, 0.27515999999999996, 270.6329680161075, 1.7884E-05, 15385.819727130394
DataValue, 0.29000000000000004, 0, 1.8746E-05, 0.28492, 270.9911447775541, 1.8746E-05, 15198.975781500054
DataValue, 0.3, 0, 1.951E-05, 0.29468, 272.68067657611437, 1.951E-05, 15104.049205535621
DataValue, 0.31, 0, 2.0078E-05, 0.30463999999999997, 266.95886044426891, 2.0078E-05, 15172.825978683135
DataValue, 0.32, 0, 2.053E-05, 0.31423999999999996, 280.56502679006536, 2.053E-05, 15306.380905991229
DataValue, 0.33, 0, 2.1748E-05, 0.32416, 268.53043958065166, 2.1748E-05, 14905.278646312305
DataValue, 0.34, 0, 2.2898E-05, 0.33376, 272.51288322124304, 2.2898E-05, 14575.945497423356
DataValue, 0.35000000000000003, 0, 2.3668E-05, 0.34368, 267.02720973466484, 2.3668E-05, 14520.872063545714
DataValue, 0.36000000000000004, 0, 2.4180000000000002E-05, 0.35344, 271.29859387924171, 2.4180000000000002E-05, 14617.03887510339
DataValue, 0.37, 0, 2.4474E-05, 0.36335999999999996, 271.30832720438156, 2.4474E-05, 14846.776170630055
DataValue, 0.38, 0, 2.5082E-05, 0.37304, 277.48983334662393, 2.5082E-05, 14872.817159716129
DataValue, 0.39, 0, 2.669E-05, 0.3828, 269.7639565380307, 2.669E-05, 14342.450355938552
DataValue, 0.4, 0, 2.7528E-05, 0.39236, 277.53560011624654, 2.7528E-05, 14253.124091833768
DataValue, 0.41000000000000003, 0, 2.8654E-05, 0.40224, 270.81733789348937, 2.8654E-05, 14037.830669365532
DataValue, 0.42000000000000004, 0, 2.9022E-05, 0.41208, 272.896423402937, 2.9022E-05, 14198.883605540625
DataValue, 0.43, 0, 2.994E-05, 0.4218, 273.88109552438158, 2.994E-05, 14088.17635270541
DataValue, 0.44, 0, 3.0778E-05, 0.43144, 278.12073559035713, 3.0778E-05, 14017.804925596203
DataValue, 0.45, 0, 3.2352E-05, 0.44116, 273.24431256182044, 3.2352E-05, 13636.251236399605
DataValue, 0.46, 0, 3.3216E-05, 0.45083999999999996, 275.77071290944292, 3.3216E-05, 13572.976878612715
DataValue, 0.47000000000000003, 0, 3.473E-05, 0.46059999999999995, 270.65937230060683, 3.473E-05, 13262.309242729627
DataValue, 0.48000000000000004, 0, 3.4964E-05, 0.47043999999999997, 273.42409335316523, 3.4964E-05, 13454.982267475116
DataValue, 0.49000000000000005, 0, 3.6448E-05, 0.48012, 271.071115013171, 3.6448E-05, 13172.739244951712
DataValue, 0.5, 0, 3.9354E-05, 0.48928, 272.39924785282324, 3.9354E-05, 12432.78955125273
DataValue, 0.51, 0, 4.086E-05, 0.499, 269.21194322075405, 4.086E-05, 12212.432697014196
DataValue, 0.52, 0, 4.2408000000000005E-05, 0.5088, 264.10111299754732, 4.2408000000000005E-05, 11997.736276174306
DataValue, 0.53, 0, 4.8534E-05, 0.51696, 268.67762805456073, 4.8534E-05, 10651.502039807145
DataValue, 0.54, 0, 4.9532E-05, 0.52667999999999993, 268.91706371638759, 4.9532E-05, 10633.126059920858
DataValue, 0.55, 0, 5.1068E-05, 0.53599999999999992, 274.14427821728134, 5.1068E-05, 10495.809508890106
DataValue, 0.56, 0, 5.6394E-05, 0.54516, 263.14856190374996, 5.6394E-05, 9666.9858495584631
DataValue, 0.57000000000000006, 0, 5.746E-05, 0.5542, 274.97389488339775, 5.746E-05, 9644.9704142011833
DataValue, 0.58000000000000007, 0, 6.3098E-05, 0.56292, 270.69003771910513, 6.3098E-05, 8921.3604234682552
DataValue, 0.59000000000000008, 0, 6.6024E-05, 0.57128, 283.5332606324983, 6.6024E-05, 8652.61117169514
DataValue, 0.6, 0, 0.00025684000000000004, 0.53108, 268.33826506774636, 0.00025684000000000004, 2067.7464569381714
DataValue, 0.61, 0, 0.00025844, 0.54099999999999993, 266.9865345921686, 0.00025844, 2093.3292060052618
DataValue, 0.62, 0, 0.00025446, 0.55031999999999992, 273.83478739291075, 0.00025446, 2162.6974770101388
DataValue, 0.63, 0, 0.00027948000000000003, 0.55384, 272.50608272506082, 0.00027948000000000003, 1981.6802633462141
DataValue, 0.64, 0, 0.00029226, 0.56036, 272.49709163073987, 0.00029226, 1917.3338807910761
DataValue, 0.65, 0, 0.00029938, 0.5686, 271.89525018371307, 0.00029938, 1899.2584674994987
DataValue, 0.66, 0, 0.00030838, 0.57656, 270.57526428432476, 0.00030838, 1869.64135157922
DataValue, 0.67, 0, 0.00032694, 0.57963999999999993, 276.38098733712638, 0.00032694, 1772.9246956628124
DataValue, 0.68, 0, 0.00034496, 0.58644, 271.2198515769947, 0.00034496, 1700.0231910946195
DataValue, 0.69000000000000006, 0, 0.00036302000000000003, 0.59107999999999994, 272.49187372596583, 0.00036302000000000003, 1628.2298495950633
DataValue, 0.70000000000000007, 0, 0.00039866, 0.59083999999999992, 273.817287914514, 0.00039866, 1482.0649174735361
DataValue, 0.71000000000000008, 0, 0.00042502, 0.59616, 267.84621900145885, 0.00042502, 1402.6634040751023
DataValue, 0.72000000000000008, 0, 0.00043438000000000005, 0.60283999999999993, 269.71775864450512, 0.00043438000000000005, 1387.8171186518714
DataValue, 0.73, 0, 0.00045144000000000006, 0.60836, 269.44887471203253, 0.00045144000000000006, 1347.5987949672158
DataValue, 0.74, 0, 0.00047498, 0.61203999999999992, 269.40081687650019, 0.00047498, 1288.5595182955069
DataValue, 0.75, 0, 0.0004967, 0.61676, 268.25045298973231, 0.0004967, 1241.7153211193879
DataValue, 0.76, 0, 0.0005117, 0.62184, 270.0019542700802, 0.0005117, 1215.2433066249755
DataValue, 0.77, 0, 0.00052846, 0.62728, 270.06774401089973, 0.00052846, 1186.9961775725692
DataValue, 0.78, 0, 0.00054234, 0.63435999999999992, 268.54003023933348, 0.00054234, 1169.6721613747832
DataValue, 0.79, 0, 0.0005517, 0.6406, 270.79934747145205, 0.0005517, 1161.1382998006161
DataValue, 0.8, 0, 0.00057544000000000009, 0.64511999999999992, 269.15056304740739, 0.00057544000000000009, 1121.0899485611008
DataValue, 0.81, 0, 0.00059414000000000005, 0.64996, 269.36412293398871, 0.00059414000000000005, 1093.9509206584305
DataValue, 0.82000000000000006, 0, 0.00061466000000000005, 0.65523999999999993, 268.05062961637344, 0.00061466000000000005, 1066.0202388312237
DataValue, 0.83000000000000007, 0, 0.0006271, 0.65976, 271.47185456864941, 0.0006271, 1052.0810078137458
DataValue, 0.84000000000000008, 0, 0.00064492, 0.66676, 268.622464801836, 0.00064492, 1033.8646653848539
DataValue, 0.85000000000000009, 0, 0.00066542, 0.67264, 266.53842685822497, 0.00066542, 1010.8502900423792
DataValue, 0.86, 0, 0.00068606000000000006, 0.67728, 266.33239075299531, 0.00068606000000000006, 987.2022855143864
DataValue, 0.87, 0, 0.00069992, 0.68272, 267.57343696422447, 0.00069992, 975.42576294433638
DataValue, 0.88, 0, 0.0007274, 0.68592, 266.81330767115759, 0.0007274, 942.97497937860874
DataValue, 0.89, 0, 0.00074836, 0.69207999999999992, 264.47164466299654, 0.00074836, 924.795552942434
DataValue, 0.9, 0, 0.0007573800000000001, 0.69875999999999994, 265.70545829042231, 0.0007573800000000001, 922.60160025350535
DataValue, 0.91, 0, 0.0007816, 0.7026, 265.35312180143296, 0.0007816, 898.92528147389964
DataValue, 0.92, 0, 0.0007977800000000001, 0.70788, 265.88783875253836, 0.0007977800000000001, 887.31229160921544
DataValue, 0.93, 0, 0.00081440000000000006, 0.71372, 265.5697445972495, 0.00081440000000000006, 876.37524557956772
DataValue, 0.94000000000000006, 0, 0.00083312, 0.71948, 264.69176109083929, 0.00083312, 863.59708085269824
DataValue, 0.95000000000000007, 0, 0.00085210000000000006, 0.72388, 265.36791456401841, 0.00085210000000000006, 849.52470367327771
DataValue, 0.96000000000000008, 0, 0.00086906000000000006, 0.73027999999999993, 264.33157664603152, 0.00086906000000000006, 840.31022023795811
DataValue, 0.97000000000000008, 0, 0.00089032000000000011, 0.73592, 262.91670410638875, 0.00089032000000000011, 826.57920747596359
DataValue, 0.98000000000000009, 0, 0.00090820000000000007, 0.74168, 262.40916097775829, 0.00090820000000000007, 816.648315349042
DataValue, 0.9900000000000001, 0, 0.00092412000000000006, 0.74496, 265.16036878327503, 0.00092412000000000006, 806.12907414621463
DataValue, 1, 0, 0.00095034, 0.74964, 263.44255740050932, 0.00095034, 788.81242502683244
DataValue, 1.01, 0, 0.00097854, 0.75376, 261.85950497680221, 0.00097854, 770.29043268542932
DataValue, 1.02, 0, 0.00099842, 0.75812, 262.29442519180304, 0.00099842, 759.31972516576184
DataValue, 1.03, 0, 0.0010194400000000002, 0.7634, 261.516126500824, 0.0010194400000000002, 748.84250176567514
DataValue, 1.04, 0, 0.00104262, 0.76744, 261.41834992614764, 0.00104262, 736.06874988010975
DataValue, 1.05, 0, 0.00105846, 0.7736, 261.13410048561127, 0.00105846, 730.87315533888852
DataValue, 1.06, 0, 0.00107452, 0.77888, 261.62379481070622, 0.00107452, 724.86319472880916
DataValue, 1.07, 0, 0.00109332, 0.78576, 259.97878022902722, 0.00109332, 718.69169136208973
DataValue, 1.08, 0, 0.00111198, 0.79008, 260.724113743053, 0.00111198, 710.51637619381643
DataValue, 1.09, 0, 0.0011300000000000001, 0.79552, 260.60176991150445, 0.0011300000000000001, 703.99999999999989
DataValue, 1.1, 0, 0.001166, 0.7998, 257.46140651801039, 0.001166, 685.934819897084
DataValue, 1.11, 0, 0.0011842, 0.80692, 255.93649721330866, 0.0011842, 681.40516804593813
DataValue, 1.12, 0, 0.0012092000000000001, 0.81228, 254.48230234866034, 0.0012092000000000001, 671.74991730069462
DataValue, 1.1300000000000001, 0, 0.0012286, 0.81592, 255.64056649845364, 0.0012286, 664.10548591893212
DataValue, 1.1400000000000001, 0, 0.0012692, 0.81736, 254.20737472423585, 0.0012692, 643.99621809013547
DataValue, 1.1500000000000001, 0, 0.0012932, 0.823, 252.86111970306232, 0.0012932, 636.40581503247756
DataValue, 1.1600000000000001, 0, 0.0013164000000000001, 0.82707999999999993, 252.90185353995761, 0.0013164000000000001, 628.28927377696732
DataValue, 1.1700000000000002, 0, 0.0013338, 0.83532, 250.92217723796685, 0.0013338, 626.27080521817356
DataValue, 1.1800000000000002, 0, 0.0013578, 0.84124, 249.49182501104741, 0.0013578, 619.5610546472235
DataValue, 1.19, 0, 0.0013824, 0.84632, 248.61111111111111, 0.0013824, 612.21064814814815
DataValue, 1.2, 0, 0.0014048, 0.85427999999999993, 246.09908883826878, 0.0014048, 608.11503416856488
DataValue, 1.21, 0, 0.0014246, 0.86076, 245.14951565351677, 0.0014246, 604.21170854976833
DataValue, 1.22, 0, 0.0014564, 0.86476, 243.9165064542708, 0.0014564, 593.765449052458
DataValue, 1.23, 0, 0.0014788, 0.87127999999999994, 242.57506086015692, 0.0014788, 589.18041655396269
DataValue, 1.24, 0, 0.0014992, 0.87864, 241.03521878335113, 0.0014992, 586.0725720384205
DataValue, 1.25, 0, 0.0015182, 0.88616, 239.65221973389544, 0.0015182, 583.69121327888286
DataValue, 1.26, 0, 0.0015376, 0.89064, 240.21852237252861, 0.0015376, 579.24037460978138
DataValue, 1.27, 0, 0.0015574, 0.89479999999999993, 240.91434442018755, 0.0015574, 574.547322460511
