
SetupTitle, DualSET
PrimitiveTest, I/V Sweep
TestParameter, Context.MainFrame, B1500A
TestParameter, Channel.UnitType, SMU, SMU, SMU
TestParameter, Channel.Unit, SMU4:MP, SMU2:MP, SMU1:MP
TestParameter, Channel.IName, Irow, Icol, Igate
TestParameter, Channel.VName, Vrow, Vcol, Vgate
TestParameter, Channel.Mode, V, V, I
TestParameter, Channel.Func, VAR1, CONST, CONST
TestParameter, Channel.Index, 
TestParameter, Channel.Time, 
TestParameter, Measurement.Port.Unit, SMU4:MP, SMU2:MP, SMU1:MP
TestParameter, Measurement.Port.SeriesResistor, NONE, NONE, NONE
TestParameter, Measurement.Port.Filter, ON, ON, ON
TestParameter, Measurement.Port.OutputVoltageComparison, 0, 0, 0
TestParameter, Measurement.Primary.Locus, Double
TestParameter, Measurement.Primary.Scale, LINEAR
TestParameter, Measurement.Primary.Start, 0
TestParameter, Measurement.Primary.Stop, 1.3
TestParameter, Measurement.Primary.Step, 0.01
TestParameter, Measurement.Primary.Compliance, 0.004
TestParameter, Measurement.Primary.PowerCompliance, 0
TestParameter, Measurement.Aborting.Condition, CONTINUE AT ANY
TestParameter, Measurement.PostOutput.Value, START
TestParameter, Measurement.PostOutput.Retention, OFF
TestParameter, Measurement.Bias.Source, 0, 0, 1E-13
TestParameter, Measurement.Bias.Compliance, 0.004, 0.1, 10
TestParameter, Measurement.Monitor.Unit, SMU4:MP, SMU2:MP, SMU1:MP
TestParameter, Measurement.Monitor.Adc, HR ADC, HR ADC, HR ADC
TestParameter, Measurement.Monitor.Measurement, Compliance Side, Compliance Side, Compliance Side
TestParameter, Measurement.Monitor.RangingMode, LIMITED, LIMITED, LIMITED
TestParameter, Measurement.Monitor.RangeBoundary, 1nA, 1nA, 2V
TestParameter, Measurement.Monitor.RangeRating, BY FULL RANGE, BY FULL RANGE
TestParameter, Measurement.Monitor.RangeRatingCoeff, 50, 50
TestParameter, Measurement.Timing.Hold, 0
TestParameter, Measurement.Timing.Delay, 0
TestParameter, Measurement.Adc.HighSpeed.Mode, AUTO
TestParameter, Measurement.Adc.HighSpeed.Coeff, 1
TestParameter, Measurement.Adc.HighResolution.AutoZero, OFF
TestParameter, Measurement.Adc.HighResolution.Mode, AUTO
TestParameter, Measurement.Adc.HighResolution.Coeff, 6
TestParameter, Measurement.WaitTime.Source.Coeff, 1
TestParameter, Measurement.WaitTime.Source.Offset, 0
TestParameter, Measurement.WaitTime.Monitor.Coeff, 1
TestParameter, Measurement.WaitTime.Monitor.Offset, 0
TestParameter, Function.User.Name, R1, absIrow, R2
TestParameter, Function.User.Unit, ohm, A, ohm
TestParameter, Function.User.Definition, abs((Vrow-Vgate)/Irow), abs(Irow), abs(Vgate/Irow)
TestParameter, Output.Graph.Enabled, true
TestParameter, Output.Graph.AutoScaling, false
TestParameter, Output.Graph.XAxis.Data, Vrow
TestParameter, Output.Graph.XAxis.Scale, Linear
TestParameter, Output.Graph.XAxis.Left, 0
TestParameter, Output.Graph.XAxis.Right, 1.5
TestParameter, Output.Graph.XAxis.RunTimeAutoScale, true
TestParameter, Output.Graph.YAxis.Data, absIrow, Vgate
TestParameter, Output.Graph.YAxis.Scale, Linear, Linear
TestParameter, Output.Graph.YAxis.Bottom, 0, -0.1
TestParameter, Output.Graph.YAxis.Top, 1, 0.1
TestParameter, Output.Graph.YAxis.Group, , 
TestParameter, Output.Graph.YAxis.RunTimeAutoScale, true, true
TestParameter, Output.List.Data, Vrow, Vcol, R1, R2, Vgate, Irow
TestParameter, AutoAnalysis.Interpolation, false
TestParameter, AutoAnalysis.Line1.Enabled, false
TestParameter, AutoAnalysis.Line1.Type, 1
TestParameter, AutoAnalysis.Line1.Fix, True
TestParameter, AutoAnalysis.Line1.YAxis, 0
TestParameter, AutoAnalysis.Line1.Point1.Type, 0
TestParameter, AutoAnalysis.Line1.Point1.XY.X, 
TestParameter, AutoAnalysis.Line1.Point1.XY.Y, 
TestParameter, AutoAnalysis.Line1.Point1.Data.Var, 
TestParameter, AutoAnalysis.Line1.Point1.Data.Condition, 
TestParameter, AutoAnalysis.Line1.Point1.Data.Start, false
TestParameter, AutoAnalysis.Line1.Point1.Data.StartVar, 
TestParameter, AutoAnalysis.Line1.Point1.Data.StartCondition, 
TestParameter, AutoAnalysis.Line1.Point2.Type, 0
TestParameter, AutoAnalysis.Line1.Point2.XY.X, 
TestParameter, AutoAnalysis.Line1.Point2.XY.Y, 
TestParameter, AutoAnalysis.Line1.Point2.Data.Var, 
TestParameter, AutoAnalysis.Line1.Point2.Data.Condition, 
TestParameter, AutoAnalysis.Line1.Point2.Data.Start, false
TestParameter, AutoAnalysis.Line1.Point2.Data.StartVar, 
TestParameter, AutoAnalysis.Line1.Point2.Data.StartCondition, 
TestParameter, AutoAnalysis.Line1.GradientExpr, 0
TestParameter, AutoAnalysis.Line2.Enabled, false
TestParameter, AutoAnalysis.Line2.Type, 1
TestParameter, AutoAnalysis.Line2.Fix, True
TestParameter, AutoAnalysis.Line2.YAxis, 0
TestParameter, AutoAnalysis.Line2.Point1.Type, 0
TestParameter, AutoAnalysis.Line2.Point1.XY.X, 
TestParameter, AutoAnalysis.Line2.Point1.XY.Y, 
TestParameter, AutoAnalysis.Line2.Point1.Data.Var, 
TestParameter, AutoAnalysis.Line2.Point1.Data.Condition, 
TestParameter, AutoAnalysis.Line2.Point1.Data.Start, false
TestParameter, AutoAnalysis.Line2.Point1.Data.StartVar, 
TestParameter, AutoAnalysis.Line2.Point1.Data.StartCondition, 
TestParameter, AutoAnalysis.Line2.Point2.Type, 0
TestParameter, AutoAnalysis.Line2.Point2.XY.X, 
TestParameter, AutoAnalysis.Line2.Point2.XY.Y, 
TestParameter, AutoAnalysis.Line2.Point2.Data.Var, 
TestParameter, AutoAnalysis.Line2.Point2.Data.Condition, 
TestParameter, AutoAnalysis.Line2.Point2.Data.Start, false
TestParameter, AutoAnalysis.Line2.Point2.Data.StartVar, 
TestParameter, AutoAnalysis.Line2.Point2.Data.StartCondition, 
TestParameter, AutoAnalysis.Line2.GradientExpr, 0
TestParameter, AutoAnalysis.Marker.Enabled, false
TestParameter, AutoAnalysis.Marker.Data.Var, 
TestParameter, AutoAnalysis.Marker.Data.Condition, 
TestParameter, AutoAnalysis.Marker.Data.Start, false
TestParameter, AutoAnalysis.Marker.Data.StartVar, 
TestParameter, AutoAnalysis.Marker.Data.StartCondition, 
MetaData, TestRecord.EntryPoint, true
MetaData, TestRecord.RecordTime, 03/21/2019 18:35:38
MetaData, TestRecord.TestTarget, 3,4
MetaData, TestRecord.IterationIndex, 1
MetaData, TestRecord.Preservation, true
MetaData, TestRecord.Flag, 
MetaData, TestRecord.Remarks, 
MetaData, TestRecord.LinkKey, 3fff77b0-8af9-40a3-ac29-c80fb09b4734
Dimension1, 262, 262, 262, 262, 262, 262, 262
Dimension2, 1, 1, 1, 1, 1, 1, 1
DataName, Vrow, Vcol, Irow, Vgate, R1, absIrow, R2
DataValue, 0, 0, 2.9076E-08, 7.9999999999999993E-05, 2751.4100976750583, 2.9076E-08, 2751.4100976750583
DataValue, 0.01, 0, 3.0646000000000003E-06, 0.0095599999999999991, 143.57501794687761, 3.0646000000000003E-06, 3119.4935717548778
DataValue, 0.02, 0, 6.1345E-06, 0.019039999999999998, 156.49197163583054, 6.1345E-06, 3103.7574374439641
DataValue, 0.030000000000000002, 0, 9.18E-06, 0.02852, 161.220043572985, 9.18E-06, 3106.7538126361655
DataValue, 0.04, 0, 1.2246000000000001E-05, 0.03804, 160.05226196309025, 1.2246000000000001E-05, 3106.3204311611948
DataValue, 0.05, 0, 1.5376E-05, 0.047479999999999994, 163.89177939646257, 1.5376E-05, 3087.9292403746094
DataValue, 0.060000000000000005, 0, 1.8532E-05, 0.05704, 159.72372113101685, 1.8532E-05, 3077.9192747679685
DataValue, 0.07, 0, 2.1732E-05, 0.06644, 163.81373090373677, 2.1732E-05, 3057.2427756304064
DataValue, 0.08, 0, 2.4978E-05, 0.07588, 164.94515173352545, 2.4978E-05, 3037.8733285291055
DataValue, 0.090000000000000011, 0, 2.8268E-05, 0.085359999999999991, 164.14320079241611, 2.8268E-05, 3019.6688835432287
DataValue, 0.1, 0, 3.1522E-05, 0.09476, 166.23310703635582, 3.1522E-05, 3006.1544318253918
DataValue, 0.11, 0, 3.4886000000000004E-05, 0.10424, 165.10921286475951, 3.4886000000000004E-05, 2988.0181161497444
DataValue, 0.12000000000000001, 0, 3.853E-05, 0.11359999999999999, 166.10433428497319, 3.853E-05, 2948.3519335582664
DataValue, 0.13, 0, 4.189E-05, 0.12304, 166.14943900692308, 4.189E-05, 2937.2165194557174
DataValue, 0.14, 0, 4.555E-05, 0.13244, 165.97145993413855, 4.555E-05, 2907.5740944017562
DataValue, 0.15, 0, 4.9222000000000004E-05, 0.14192, 164.15423997399543, 4.9222000000000004E-05, 2883.2635813254233
DataValue, 0.16, 0, 5.3092E-05, 0.15123999999999999, 164.99660965870598, 5.3092E-05, 2848.6400964363743
DataValue, 0.17, 0, 5.6828E-05, 0.1606, 165.41141690715878, 5.6828E-05, 2826.0716548180476
DataValue, 0.18000000000000002, 0, 6.0780000000000004E-05, 0.16996, 165.1859164198753, 6.0780000000000004E-05, 2796.3145771635404
DataValue, 0.19, 0, 6.4274E-05, 0.1794, 164.9189407847652, 6.4274E-05, 2791.1752808289511
DataValue, 0.2, 0, 6.886E-05, 0.1886, 165.55329654371218, 6.886E-05, 2738.890502468777
DataValue, 0.21000000000000002, 0, 7.2552E-05, 0.19799999999999998, 165.39861065167105, 7.2552E-05, 2729.0770757525634
DataValue, 0.22, 0, 7.6908E-05, 0.20728, 165.39241691371521, 7.6908E-05, 2695.1682529775835
DataValue, 0.23, 0, 8.0966E-05, 0.21656, 165.99560309265627, 8.0966E-05, 2674.7029617370254
DataValue, 0.24000000000000002, 0, 8.5394E-05, 0.22576, 166.75644658875365, 8.5394E-05, 2643.7454622104597
DataValue, 0.25, 0, 8.9846000000000007E-05, 0.23512, 165.61672194644171, 8.9846000000000007E-05, 2616.9222892504949
DataValue, 0.26, 0, 9.4282E-05, 0.24428, 166.7338410301013, 9.4282E-05, 2590.9505525975264
DataValue, 0.27, 0, 9.9006000000000007E-05, 0.2536, 165.6465264731433, 9.9006000000000007E-05, 2561.4609215603091
DataValue, 0.28, 0, 0.00010351200000000001, 0.26283999999999996, 165.77788082541215, 0.00010351200000000001, 2539.2225056032144
DataValue, 0.29000000000000004, 0, 0.00010797, 0.27199999999999996, 166.71297582661916, 0.00010797, 2519.2183013800127
DataValue, 0.3, 0, 0.00011312400000000001, 0.2812, 166.18931438067943, 0.00011312400000000001, 2485.7678299918671
DataValue, 0.31, 0, 0.00011804, 0.29044, 165.70654015587954, 0.00011804, 2460.5218569976278
DataValue, 0.32, 0, 0.00012262000000000002, 0.2996, 166.36763986299158, 0.00012262000000000002, 2443.3208285760884
DataValue, 0.33, 0, 0.00012754000000000002, 0.30879999999999996, 166.22236161204367, 0.00012754000000000002, 2421.2011917829695
DataValue, 0.34, 0, 0.00013230000000000002, 0.318, 166.28873771730926, 0.00013230000000000002, 2403.6281179138318
DataValue, 0.35000000000000003, 0, 0.00013744, 0.32711999999999997, 166.47264260768384, 0.00013744, 2380.0931315483117
DataValue, 0.36000000000000004, 0, 0.00014308000000000002, 0.3362, 166.34050880626251, 0.00014308000000000002, 2349.73441431367
DataValue, 0.37, 0, 0.00014844, 0.34536, 165.99299380220961, 0.00014844, 2326.5966046887629
DataValue, 0.38, 0, 0.00015344000000000002, 0.35447999999999996, 166.3190823774768, 0.00015344000000000002, 2310.2189781021893
DataValue, 0.39, 0, 0.0001594, 0.36363999999999996, 165.37013801756618, 0.0001594, 2281.3048933500627
DataValue, 0.4, 0, 0.00016418000000000002, 0.37279999999999996, 165.6718236082352, 0.00016418000000000002, 2270.6785235716893
DataValue, 0.41000000000000003, 0, 0.00016962000000000002, 0.3818, 166.2539794835518, 0.00016962000000000002, 2250.9138073340405
DataValue, 0.42000000000000004, 0, 0.00017538000000000002, 0.39096, 165.58330482381152, 0.00017538000000000002, 2229.2165583304818
DataValue, 0.43, 0, 0.00018102, 0.39999999999999997, 165.7275439177993, 0.00018102, 2209.7005855706552
DataValue, 0.44, 0, 0.00018622000000000002, 0.40903999999999996, 166.25496724304608, 0.00018622000000000002, 2196.5417248415847
DataValue, 0.45, 0, 0.00019260000000000002, 0.41808, 165.73208722741433, 0.00019260000000000002, 2170.7165109034268
DataValue, 0.46, 0, 0.00019736000000000002, 0.42707999999999996, 166.80178354276478, 0.00019736000000000002, 2163.9643291447096
DataValue, 0.47000000000000003, 0, 0.00020368, 0.436, 166.92851531814625, 0.00020368, 2140.6127258444617
DataValue, 0.48000000000000004, 0, 0.00021050000000000002, 0.44495999999999997, 166.46080760095043, 0.00021050000000000002, 2113.8242280285031
DataValue, 0.49000000000000005, 0, 0.00021676, 0.45376, 167.18951836132149, 0.00021676, 2093.3751614689058
DataValue, 0.5, 0, 0.0002235, 0.46271999999999996, 166.80089485458629, 0.0002235, 2070.3355704697983
DataValue, 0.51, 0, 0.00023016, 0.4718, 165.97149808828647, 0.00023016, 2049.8783454987833
DataValue, 0.52, 0, 0.00023630000000000003, 0.48088, 165.55226407109623, 0.00023630000000000003, 2035.0402031316121
DataValue, 0.53, 0, 0.00024106000000000003, 0.48979999999999996, 166.76346137891008, 0.00024106000000000003, 2031.8592881440302
DataValue, 0.54, 0, 0.00024882, 0.4986, 166.38533879913209, 0.00024882, 2003.8582107547622
DataValue, 0.55, 0, 0.00025258, 0.50768, 167.55087497030652, 0.00025258, 2009.977036978383
DataValue, 0.56, 0, 0.00026094000000000003, 0.51652, 166.62834368053984, 0.00026094000000000003, 1979.4588794358854
DataValue, 0.57000000000000006, 0, 0.00026634, 0.525, 168.9569722910567, 0.00026634, 1971.1646767289931
DataValue, 0.58000000000000007, 0, 0.00027798, 0.53376, 166.342902367077, 0.00027798, 1920.1381394344919
DataValue, 0.59000000000000008, 0, 0.0002838, 0.54252, 167.3009161381257, 0.0002838, 1911.627906976744
DataValue, 0.6, 0, 0.00029498, 0.55096, 166.2485592243541, 0.00029498, 1867.7876466201096
DataValue, 0.61, 0, 0.00030204, 0.55952, 167.13018143292268, 0.00030204, 1852.4698715401935
DataValue, 0.62, 0, 0.00031068000000000003, 0.56828, 166.47354190807258, 0.00031068000000000003, 1829.1489635637954
DataValue, 0.63, 0, 0.00031860000000000005, 0.57696, 166.47834274952908, 0.00031860000000000005, 1810.9227871939734
DataValue, 0.64, 0, 0.00032750000000000005, 0.58544, 166.59541984732837, 0.00032750000000000005, 1787.6030534351141
DataValue, 0.65, 0, 0.00033586, 0.5942, 166.14065384386373, 0.00033586, 1769.1895432620734
DataValue, 0.66, 0, 0.00034012, 0.603, 167.5879101493592, 0.00034012, 1772.9036810537457
DataValue, 0.67, 0, 0.00034708000000000004, 0.61212, 166.76270600437948, 0.00034708000000000004, 1763.6279820214359
DataValue, 0.68, 0, 0.00035194, 0.62115999999999993, 167.18758879354468, 0.00035194, 1764.9599363527871
DataValue, 0.69000000000000006, 0, 0.00036594000000000004, 0.62891999999999992, 166.912608624365, 0.00036594000000000004, 1718.6424003935067
DataValue, 0.70000000000000007, 0, 0.00037634, 0.63703999999999994, 167.2955306371901, 0.00037634, 1692.7246638677789
DataValue, 0.71000000000000008, 0, 0.00039152, 0.64484, 166.42827952595042, 0.00039152, 1647.0167552104617
DataValue, 0.72000000000000008, 0, 0.00040110000000000005, 0.65196, 169.63350785340336, 0.00040110000000000005, 1625.4300673148839
DataValue, 0.73, 0, 0.00041342, 0.65964, 170.19012142615253, 0.00041342, 1595.5686710850951
DataValue, 0.74, 0, 0.00044476000000000004, 0.66564, 167.19129418113133, 0.00044476000000000004, 1496.6273945498695
DataValue, 0.75, 0, 0.00046662000000000006, 0.67164, 167.93107882216788, 0.00046662000000000006, 1439.3725086794393
DataValue, 0.76, 0, 0.00048402000000000004, 0.67884, 167.67902152803603, 0.00048402000000000004, 1402.5040287591421
DataValue, 0.77, 0, 0.00051864, 0.68208, 169.52028381921949, 0.00051864, 1315.1318833873206
DataValue, 0.78, 0, 0.00066154000000000007, 0.6668, 171.11588112585795, 0.00066154000000000007, 1007.9511442996643
DataValue, 0.79, 0, 0.00066632000000000008, 0.68164, 162.62456477368232, 0.00066632000000000008, 1022.9919558170248
DataValue, 0.8, 0, 0.00075478, 0.67272, 168.63191923474398, 0.00075478, 891.27957815522393
DataValue, 0.81, 0, 0.001561, 0.54296, 171.06982703395261, 0.001561, 347.82831518257524
DataValue, 0.82000000000000006, 0, 0.0015978000000000001, 0.54599999999999993, 171.48579296532739, 0.0015978000000000001, 341.71986481411932
DataValue, 0.83000000000000007, 0, 0.0016196000000000001, 0.54955999999999994, 173.15386515188942, 0.0016196000000000001, 339.31835020992833
DataValue, 0.84000000000000008, 0, 0.001711, 0.5436, 173.2320280537698, 0.001711, 317.70894213909992
DataValue, 0.85000000000000009, 0, 0.001733, 0.54992, 173.15637622619741, 0.001733, 317.3225620311598
DataValue, 0.86, 0, 0.0017394, 0.55631999999999993, 174.58893871449928, 0.0017394, 319.83442566402204
DataValue, 0.87, 0, 0.0017872, 0.56252, 172.04565801253355, 0.0017872, 314.74932855863921
DataValue, 0.88, 0, 0.0017618, 0.57631999999999994, 172.36916789646955, 0.0017618, 327.1199909183789
DataValue, 0.89, 0, 0.0016466, 0.60344, 174.03133730110534, 0.0016466, 366.47637556176363
DataValue, 0.9, 0, 0.00164, 0.63764, 159.97560975609758, 0.00164, 388.80487804878049
DataValue, 0.91, 0, 0.0018470000000000001, 0.58572, 175.57119653492148, 0.0018470000000000001, 317.11965349214944
DataValue, 0.92, 0, 0.0013830000000000001, 0.64652, 197.74403470715836, 0.0013830000000000001, 467.47650036153283
DataValue, 0.93, 0, 0.0014742, 0.67076, 175.85130918464253, 0.0014742, 454.99932166598836
DataValue, 0.94000000000000006, 0, 0.0015306, 0.65744, 184.60734352541488, 0.0015306, 429.53090291389
DataValue, 0.95000000000000007, 0, 0.0016896, 0.67484, 162.85511363636368, 0.0016896, 399.40814393939394
DataValue, 0.96000000000000008, 0, 0.00171, 0.69104, 157.2865497076024, 0.00171, 404.11695906432749
DataValue, 0.97000000000000008, 0, 0.0016724, 0.67555999999999994, 176.05835924420003, 0.0016724, 403.94642430040653
DataValue, 0.98000000000000009, 0, 0.001977, 0.60964, 187.33434496712198, 0.001977, 308.36621143146181
DataValue, 0.9900000000000001, 0, 0.0022518, 0.59392, 175.89483968380856, 0.0022518, 263.75344169109155
DataValue, 1, 0, 0.0023102, 0.59148, 176.83317461691627, 0.0023102, 256.02978097134445
DataValue, 1.01, 0, 0.0023574, 0.59216, 177.24611860524306, 0.0023574, 251.19199117672014
DataValue, 1.02, 0, 0.0023814, 0.59039999999999992, 180.39808515998996, 0.0023814, 247.92139077853361
DataValue, 1.03, 0, 0.0024064, 0.5922, 181.93151595744683, 0.0024064, 246.09374999999997
DataValue, 1.04, 0, 0.0023548, 0.5766, 196.78953626634959, 0.0023548, 244.86155936809919
DataValue, 1.05, 0, 0.0022788, 0.56416, 213.19992978760752, 0.0022788, 247.56889591012813
DataValue, 1.06, 0, 0.002237, 0.56008, 223.47787215020119, 0.002237, 250.37103263299065
DataValue, 1.07, 0, 0.0022176, 0.56328, 228.49927849927852, 0.0022176, 254.00432900432898
DataValue, 1.08, 0, 0.0022144, 0.56319999999999992, 233.38150289017347, 0.0022144, 254.3352601156069
DataValue, 1.09, 0, 0.0022026, 0.56392, 238.84500136202675, 0.0022026, 256.02469808408244
DataValue, 1.1, 0, 0.0021992, 0.56619999999999993, 242.72462713714083, 0.0021992, 257.45725718443066
DataValue, 1.11, 0, 0.0021676, 0.56712, 250.45211293596611, 0.0021676, 261.634988005167
DataValue, 1.12, 0, 0.002167, 0.56684, 255.26534379326262, 0.002167, 261.57821873557913
DataValue, 1.1300000000000001, 0, 0.0021814, 0.5756, 254.14871183643538, 0.0021814, 263.86724122123405
DataValue, 1.1400000000000001, 0, 0.0021666, 0.57736, 259.68799039970469, 0.0021666, 266.48204560140312
DataValue, 1.1500000000000001, 0, 0.002148, 0.57624, 267.11359404096839, 0.002148, 268.268156424581
DataValue, 1.1600000000000001, 0, 0.0021456, 0.57016, 274.90678598061152, 0.0021456, 265.73452647278151
DataValue, 1.1700000000000002, 0, 0.0021422, 0.56984, 280.16058257865751, 0.0021422, 266.00690878536085
DataValue, 1.1800000000000002, 0, 0.0021212, 0.56248, 291.11823496134269, 0.0021212, 265.17065811804633
DataValue, 1.19, 0, 0.0021186, 0.56596, 294.55300670253939, 0.0021186, 267.13867648447086
DataValue, 1.2, 0, 0.0020998, 0.56331999999999993, 303.20982950757212, 0.0020998, 268.273168873226
DataValue, 1.21, 0, 0.0020836, 0.56052, 311.71050105586482, 0.0020836, 269.01516605874446
DataValue, 1.22, 0, 0.0020682, 0.55387999999999993, 322.07716855236441, 0.0020682, 267.80775553621504
DataValue, 1.23, 0, 0.0019412000000000001, 0.52364, 363.87801359983513, 0.0019412000000000001, 269.75066968885221
DataValue, 1.24, 0, 0.0009696, 0.21192, 1060.3135313531354, 0.0009696, 218.56435643564356
DataValue, 1.25, 0, 0.00061124000000000009, 0.1702, 1766.5728682677834, 0.00061124000000000009, 278.45036319612586
DataValue, 1.26, 0, 0.00059546, 0.18516, 1805.0582742753502, 0.00059546, 310.95287676754106
