
SetupTitle, DualSET
PrimitiveTest, I/V Sweep
TestParameter, Context.MainFrame, B1500A
TestParameter, Channel.UnitType, SMU, SMU, SMU
TestParameter, Channel.Unit, SMU4:MP, SMU2:MP, SMU1:MP
TestParameter, Channel.IName, Irow, Icol, Igate
TestParameter, Channel.VName, Vrow, Vcol, Vgate
TestParameter, Channel.Mode, V, V, I
TestParameter, Channel.Func, VAR1, CONST, CONST
TestParameter, Channel.Index, 
TestParameter, Channel.Time, 
TestParameter, Measurement.Port.Unit, SMU4:MP, SMU2:MP, SMU1:MP
TestParameter, Measurement.Port.SeriesResistor, NONE, NONE, NONE
TestParameter, Measurement.Port.Filter, ON, ON, ON
TestParameter, Measurement.Port.OutputVoltageComparison, 0, 0, 0
TestParameter, Measurement.Primary.Locus, Double
TestParameter, Measurement.Primary.Scale, LINEAR
TestParameter, Measurement.Primary.Start, 0
TestParameter, Measurement.Primary.Stop, 1.3
TestParameter, Measurement.Primary.Step, 0.01
TestParameter, Measurement.Primary.Compliance, 0.005
TestParameter, Measurement.Primary.PowerCompliance, 0
TestParameter, Measurement.Aborting.Condition, CONTINUE AT ANY
TestParameter, Measurement.PostOutput.Value, START
TestParameter, Measurement.PostOutput.Retention, OFF
TestParameter, Measurement.Bias.Source, 0, 0, 1E-13
TestParameter, Measurement.Bias.Compliance, 0.005, 0.1, 10
TestParameter, Measurement.Monitor.Unit, SMU4:MP, SMU2:MP, SMU1:MP
TestParameter, Measurement.Monitor.Adc, HR ADC, HR ADC, HR ADC
TestParameter, Measurement.Monitor.Measurement, Compliance Side, Compliance Side, Compliance Side
TestParameter, Measurement.Monitor.RangingMode, LIMITED, LIMITED, LIMITED
TestParameter, Measurement.Monitor.RangeBoundary, 1nA, 1nA, 2V
TestParameter, Measurement.Monitor.RangeRating, BY FULL RANGE, BY FULL RANGE
TestParameter, Measurement.Monitor.RangeRatingCoeff, 50, 50
TestParameter, Measurement.Timing.Hold, 0
TestParameter, Measurement.Timing.Delay, 0
TestParameter, Measurement.Adc.HighSpeed.Mode, AUTO
TestParameter, Measurement.Adc.HighSpeed.Coeff, 1
TestParameter, Measurement.Adc.HighResolution.AutoZero, OFF
TestParameter, Measurement.Adc.HighResolution.Mode, AUTO
TestParameter, Measurement.Adc.HighResolution.Coeff, 6
TestParameter, Measurement.WaitTime.Source.Coeff, 1
TestParameter, Measurement.WaitTime.Source.Offset, 0
TestParameter, Measurement.WaitTime.Monitor.Coeff, 1
TestParameter, Measurement.WaitTime.Monitor.Offset, 0
TestParameter, Function.User.Name, R1, absIrow, R2
TestParameter, Function.User.Unit, ohm, A, ohm
TestParameter, Function.User.Definition, abs((Vrow-Vgate)/Irow), abs(Irow), abs(Vgate/Irow)
TestParameter, Output.Graph.Enabled, true
TestParameter, Output.Graph.AutoScaling, false
TestParameter, Output.Graph.XAxis.Data, Vrow
TestParameter, Output.Graph.XAxis.Scale, Linear
TestParameter, Output.Graph.XAxis.Left, 0
TestParameter, Output.Graph.XAxis.Right, 1.5
TestParameter, Output.Graph.XAxis.RunTimeAutoScale, true
TestParameter, Output.Graph.YAxis.Data, absIrow, Vgate
TestParameter, Output.Graph.YAxis.Scale, Linear, Linear
TestParameter, Output.Graph.YAxis.Bottom, 0, -0.1
TestParameter, Output.Graph.YAxis.Top, 1, 0.1
TestParameter, Output.Graph.YAxis.Group, , 
TestParameter, Output.Graph.YAxis.RunTimeAutoScale, true, true
TestParameter, Output.List.Data, Vrow, Vcol, R1, R2, Vgate, Irow
TestParameter, AutoAnalysis.Interpolation, false
TestParameter, AutoAnalysis.Line1.Enabled, false
TestParameter, AutoAnalysis.Line1.Type, 1
TestParameter, AutoAnalysis.Line1.Fix, True
TestParameter, AutoAnalysis.Line1.YAxis, 0
TestParameter, AutoAnalysis.Line1.Point1.Type, 0
TestParameter, AutoAnalysis.Line1.Point1.XY.X, 
TestParameter, AutoAnalysis.Line1.Point1.XY.Y, 
TestParameter, AutoAnalysis.Line1.Point1.Data.Var, 
TestParameter, AutoAnalysis.Line1.Point1.Data.Condition, 
TestParameter, AutoAnalysis.Line1.Point1.Data.Start, false
TestParameter, AutoAnalysis.Line1.Point1.Data.StartVar, 
TestParameter, AutoAnalysis.Line1.Point1.Data.StartCondition, 
TestParameter, AutoAnalysis.Line1.Point2.Type, 0
TestParameter, AutoAnalysis.Line1.Point2.XY.X, 
TestParameter, AutoAnalysis.Line1.Point2.XY.Y, 
TestParameter, AutoAnalysis.Line1.Point2.Data.Var, 
TestParameter, AutoAnalysis.Line1.Point2.Data.Condition, 
TestParameter, AutoAnalysis.Line1.Point2.Data.Start, false
TestParameter, AutoAnalysis.Line1.Point2.Data.StartVar, 
TestParameter, AutoAnalysis.Line1.Point2.Data.StartCondition, 
TestParameter, AutoAnalysis.Line1.GradientExpr, 0
TestParameter, AutoAnalysis.Line2.Enabled, false
TestParameter, AutoAnalysis.Line2.Type, 1
TestParameter, AutoAnalysis.Line2.Fix, True
TestParameter, AutoAnalysis.Line2.YAxis, 0
TestParameter, AutoAnalysis.Line2.Point1.Type, 0
TestParameter, AutoAnalysis.Line2.Point1.XY.X, 
TestParameter, AutoAnalysis.Line2.Point1.XY.Y, 
TestParameter, AutoAnalysis.Line2.Point1.Data.Var, 
TestParameter, AutoAnalysis.Line2.Point1.Data.Condition, 
TestParameter, AutoAnalysis.Line2.Point1.Data.Start, false
TestParameter, AutoAnalysis.Line2.Point1.Data.StartVar, 
TestParameter, AutoAnalysis.Line2.Point1.Data.StartCondition, 
TestParameter, AutoAnalysis.Line2.Point2.Type, 0
TestParameter, AutoAnalysis.Line2.Point2.XY.X, 
TestParameter, AutoAnalysis.Line2.Point2.XY.Y, 
TestParameter, AutoAnalysis.Line2.Point2.Data.Var, 
TestParameter, AutoAnalysis.Line2.Point2.Data.Condition, 
TestParameter, AutoAnalysis.Line2.Point2.Data.Start, false
TestParameter, AutoAnalysis.Line2.Point2.Data.StartVar, 
TestParameter, AutoAnalysis.Line2.Point2.Data.StartCondition, 
TestParameter, AutoAnalysis.Line2.GradientExpr, 0
TestParameter, AutoAnalysis.Marker.Enabled, false
TestParameter, AutoAnalysis.Marker.Data.Var, 
TestParameter, AutoAnalysis.Marker.Data.Condition, 
TestParameter, AutoAnalysis.Marker.Data.Start, false
TestParameter, AutoAnalysis.Marker.Data.StartVar, 
TestParameter, AutoAnalysis.Marker.Data.StartCondition, 
MetaData, TestRecord.EntryPoint, true
MetaData, TestRecord.RecordTime, 03/21/2019 20:05:09
MetaData, TestRecord.TestTarget, 
MetaData, TestRecord.IterationIndex, 1
MetaData, TestRecord.Preservation, true
MetaData, TestRecord.Flag, 
MetaData, TestRecord.Remarks, 
MetaData, TestRecord.LinkKey, ba450226-579c-4562-858e-12681d21e50c
Dimension1, 262, 262, 262, 262, 262, 262, 262
Dimension2, 1, 1, 1, 1, 1, 1, 1
DataName, Vrow, Vcol, Irow, Vgate, R1, absIrow, R2
DataValue, 0, 0, 1.2134E-07, 0, 0, 1.2134E-07, 0
DataValue, 0.01, 0, 4.7414000000000004E-05, 0.00464, 113.0467794322352, 4.7414000000000004E-05, 97.861391150293159
DataValue, 0.02, 0, 9.520000000000001E-05, 0.00932, 112.18487394957982, 9.520000000000001E-05, 97.899159663865532
DataValue, 0.030000000000000002, 0, 0.00014234, 0.01396, 112.68793030771394, 0.00014234, 98.0750316144443
DataValue, 0.04, 0, 0.0001898, 0.01856, 112.96101159114858, 0.0001898, 97.787144362486828
DataValue, 0.05, 0, 0.00023682000000000003, 0.023119999999999998, 113.50392703318977, 0.00023682000000000003, 97.626889620809038
DataValue, 0.060000000000000005, 0, 0.00028450000000000003, 0.0278, 113.1810193321617, 0.00028450000000000003, 97.71528998242529
DataValue, 0.07, 0, 0.00033154, 0.0324, 113.41014658864694, 0.00033154, 97.72576461362128
DataValue, 0.08, 0, 0.00037856, 0.03696, 113.69399830938293, 0.00037856, 97.633136094674555
DataValue, 0.090000000000000011, 0, 0.00042602000000000004, 0.0416, 113.60968968593025, 0.00042602000000000004, 97.64799774658465
DataValue, 0.1, 0, 0.00047346000000000004, 0.0462, 113.63156338444642, 0.00047346000000000004, 97.579520973260671
DataValue, 0.11, 0, 0.00052102000000000008, 0.050879999999999995, 113.46973244789066, 0.00052102000000000008, 97.65460059114811
DataValue, 0.12000000000000001, 0, 0.00056806, 0.055479999999999995, 113.57955145583217, 0.00056806, 97.6657395345562
DataValue, 0.13, 0, 0.00061558, 0.06012, 113.51895773092043, 0.00061558, 97.663991682640756
DataValue, 0.14, 0, 0.00066264, 0.06472, 113.60618133526502, 0.00066264, 97.669926355185311
DataValue, 0.15, 0, 0.0007104800000000001, 0.069319999999999993, 113.55703186578087, 0.0007104800000000001, 97.5678414592951
DataValue, 0.16, 0, 0.00075740000000000009, 0.07392, 113.65196725640348, 0.00075740000000000009, 97.5970425138632
DataValue, 0.17, 0, 0.00080454000000000007, 0.0786, 113.60528997936709, 0.00080454000000000007, 97.69557759713625
DataValue, 0.18000000000000002, 0, 0.00085188000000000006, 0.08316, 113.67798281448093, 0.00085188000000000006, 97.619383011691781
DataValue, 0.19, 0, 0.00089942000000000006, 0.08784, 113.58430988859486, 0.00089942000000000006, 97.662938338040064
DataValue, 0.2, 0, 0.00094670000000000008, 0.09244, 113.61571775641704, 0.00094670000000000008, 97.644449139114812
DataValue, 0.21000000000000002, 0, 0.00099424, 0.09708, 113.57418731895722, 0.00099424, 97.642420341165121
DataValue, 0.22, 0, 0.00104114, 0.10164, 113.68307816431988, 0.00104114, 97.623758572334154
DataValue, 0.23, 0, 0.0010895400000000002, 0.10636, 113.4790829157259, 0.0010895400000000002, 97.6191787359803
DataValue, 0.24000000000000002, 0, 0.00113636, 0.11104, 113.48516315252209, 0.00113636, 97.7155126896406
DataValue, 0.25, 0, 0.0011842, 0.1156, 113.49434217193043, 0.0011842, 97.618645499071093
DataValue, 0.26, 0, 0.0012312, 0.12024, 113.51526965562053, 0.0012312, 97.6608187134503
DataValue, 0.27, 0, 0.001279, 0.12483999999999999, 113.49491790461299, 0.001279, 97.6075058639562
DataValue, 0.28, 0, 0.001326, 0.12947999999999998, 113.51432880844649, 0.001326, 97.6470588235294
DataValue, 0.29000000000000004, 0, 0.0013734, 0.13416, 113.47021989223826, 0.0013734, 97.684578418523373
DataValue, 0.3, 0, 0.0014206, 0.13868, 113.55765169646628, 0.0014206, 97.620723637899488
DataValue, 0.31, 0, 0.0014682, 0.1434, 113.47227898106524, 0.0014682, 97.670617082141391
DataValue, 0.32, 0, 0.001515, 0.148, 113.53135313531354, 0.001515, 97.689768976897682
DataValue, 0.33, 0, 0.001563, 0.15272, 113.42290467050546, 0.001563, 97.709532949456175
DataValue, 0.34, 0, 0.0016102, 0.15732, 113.45174512482923, 0.0016102, 97.702148801391118
DataValue, 0.35000000000000003, 0, 0.001657, 0.162, 113.45805672902837, 0.001657, 97.767048883524438
DataValue, 0.36000000000000004, 0, 0.0017042000000000001, 0.16655999999999999, 113.50780424832769, 0.0017042000000000001, 97.735007628212642
DataValue, 0.37, 0, 0.0017508, 0.17115999999999998, 113.57093899931461, 0.0017508, 97.7610235320996
DataValue, 0.38, 0, 0.0017978, 0.17587999999999998, 113.53876960729782, 0.0017978, 97.830681944598936
DataValue, 0.39, 0, 0.0018446, 0.18056, 113.54223137807655, 0.0018446, 97.885720481405173
DataValue, 0.4, 0, 0.0018932, 0.18524, 113.43756602577648, 0.0018932, 97.8449186562434
DataValue, 0.41000000000000003, 0, 0.0019396, 0.18991999999999998, 113.46669416374512, 0.0019396, 97.9170963085172
DataValue, 0.42000000000000004, 0, 0.0019868, 0.19463999999999998, 113.42862895107714, 0.0019868, 97.966579424199708
DataValue, 0.43, 0, 0.0020336, 0.1992, 113.49331235247837, 0.0020336, 97.9543666404406
DataValue, 0.44, 0, 0.0020802, 0.20387999999999998, 113.50831650802809, 0.0020802, 98.009806749351014
DataValue, 0.45, 0, 0.0021272, 0.20872, 113.42610003760812, 0.0021272, 98.119593832267753
DataValue, 0.46, 0, 0.0021738, 0.21336, 113.46029993559667, 0.0021738, 98.1507038365995
DataValue, 0.47000000000000003, 0, 0.0022212, 0.21803999999999998, 113.43417972267247, 0.0022212, 98.1631550513236
DataValue, 0.48000000000000004, 0, 0.002269, 0.22288, 113.31864257382107, 0.002269, 98.228294402820609
DataValue, 0.49000000000000005, 0, 0.0023148, 0.2274, 113.44392604112669, 0.0023148, 98.2374287195438
DataValue, 0.5, 0, 0.0023616, 0.23224, 113.38075880758807, 0.0023616, 98.340108401084009
DataValue, 0.51, 0, 0.0024092000000000002, 0.23692, 113.34882948696661, 0.0024092000000000002, 98.339697825004137
DataValue, 0.52, 0, 0.0024566, 0.24172, 113.27851502076041, 0.0024566, 98.396157290564176
DataValue, 0.53, 0, 0.0025036, 0.24631999999999998, 113.30883527720086, 0.0025036, 98.386323693880811
DataValue, 0.54, 0, 0.0025512, 0.2512, 113.20163060520541, 0.0025512, 98.463468171840688
DataValue, 0.55, 0, 0.0025964, 0.25564, 113.37236173162843, 0.0025964, 98.459405330457543
DataValue, 0.56, 0, 0.0026432, 0.26044, 113.33232445520582, 0.0026432, 98.5320823244552
DataValue, 0.57000000000000006, 0, 0.0026898, 0.26524, 113.30210424566886, 0.0026898, 98.609562049222987
DataValue, 0.58000000000000007, 0, 0.0027386, 0.26983999999999997, 113.25494778353908, 0.0027386, 98.532096691740293
DataValue, 0.59000000000000008, 0, 0.0027844000000000002, 0.27476, 113.21649188335012, 0.0027844000000000002, 98.678350811664984
DataValue, 0.6, 0, 0.0028304, 0.2794, 113.27020915771622, 0.0028304, 98.713962690785749
DataValue, 0.61, 0, 0.0028724, 0.28412, 113.45216543656872, 0.0028724, 98.91380030636401
DataValue, 0.62, 0, 0.0029232, 0.28896, 113.24575807334428, 0.0029232, 98.850574712643677
DataValue, 0.63, 0, 0.0029704, 0.29364, 113.23727444115269, 0.0029704, 98.855373013735516
DataValue, 0.64, 0, 0.0030168, 0.2984, 113.23256430654999, 0.0030168, 98.912755237337578
DataValue, 0.65, 0, 0.0030618, 0.30319999999999997, 113.26670585929847, 0.0030618, 99.026716310666913
DataValue, 0.66, 0, 0.0031094, 0.308, 113.20511995883452, 0.0031094, 99.054479963980185
DataValue, 0.67, 0, 0.0031538, 0.31251999999999996, 113.34897583867084, 0.0031538, 99.093157460840885
DataValue, 0.68, 0, 0.0032018, 0.31732, 113.27378349678308, 0.0032018, 99.106752451745891
DataValue, 0.69000000000000006, 0, 0.0032492000000000003, 0.322, 113.25864828265419, 0.0032492000000000003, 99.101317247322413
DataValue, 0.70000000000000007, 0, 0.0032936000000000003, 0.32672, 113.33495263541414, 0.0032936000000000003, 99.198445470002426
DataValue, 0.71000000000000008, 0, 0.0033414, 0.3314, 113.30579996408694, 0.0033414, 99.179984437660849
DataValue, 0.72000000000000008, 0, 0.0033846, 0.33599999999999997, 113.45506115936894, 0.0033846, 99.273178514447778
DataValue, 0.73, 0, 0.0034334, 0.34064, 113.40362323061687, 0.0034334, 99.213607502766934
DataValue, 0.74, 0, 0.0034744, 0.34464, 113.7923094635045, 0.0034744, 99.194105457057333
DataValue, 0.75, 0, 0.003523, 0.34952, 113.67584445075219, 0.003523, 99.2108998013057
DataValue, 0.76, 0, 0.0035684000000000002, 0.35412, 113.74285394014125, 0.0035684000000000002, 99.237753615065571
DataValue, 0.77, 0, 0.00361, 0.358, 114.12742382271469, 0.00361, 99.16897506925207
DataValue, 0.78, 0, 0.0036514, 0.36232, 114.38900147888482, 0.0036514, 99.227693487429477
DataValue, 0.79, 0, 0.0036956000000000003, 0.36679999999999996, 114.51455785258146, 0.0036956000000000003, 99.253165927048357
DataValue, 0.8, 0, 0.0037422, 0.37068, 114.72395916840361, 0.0037422, 99.054032387365723
DataValue, 0.81, 0, 0.0037818, 0.37488, 115.05632238616533, 0.0037818, 99.127399650959859
DataValue, 0.82000000000000006, 0, 0.0038194, 0.3796, 115.30606901607584, 0.0038194, 99.387338325391411
DataValue, 0.83000000000000007, 0, 0.0038618, 0.38388, 115.52125951628777, 0.0038618, 99.404422808016989
DataValue, 0.84000000000000008, 0, 0.0039108, 0.38839999999999997, 115.47509460979855, 0.0039108, 99.314718216221735
DataValue, 0.85000000000000009, 0, 0.003952, 0.39327999999999996, 115.56680161943324, 0.003952, 99.514170040485823
DataValue, 0.86, 0, 0.0039842, 0.39683999999999997, 116.2491842778977, 0.0039842, 99.60343356257215
DataValue, 0.87, 0, 0.0040326, 0.40112, 116.27238010216735, 0.0040326, 99.4693250012399
DataValue, 0.88, 0, 0.004073, 0.40428, 116.79842867665111, 0.004073, 99.258531794745878
DataValue, 0.89, 0, 0.0041004, 0.40828, 117.48122134425911, 0.0041004, 99.570773583065062
DataValue, 0.9, 0, 0.004144, 0.41196, 117.77027027027027, 0.004144, 99.41119691119691
DataValue, 0.91, 0, 0.0041822000000000005, 0.41384, 118.6361245277605, 0.0041822000000000005, 98.952704318301357
DataValue, 0.92, 0, 0.0042008, 0.41708, 119.72005332317654, 0.0042008, 99.285850314225854
DataValue, 0.93, 0, 0.004229, 0.41819999999999996, 121.02151808938284, 0.004229, 98.888626152754782
DataValue, 0.94000000000000006, 0, 0.00425, 0.42147999999999997, 122.00470588235295, 0.00425, 99.171764705882339
DataValue, 0.95000000000000007, 0, 0.0042816, 0.42404, 122.8419282511211, 0.0042816, 99.037742899850514
DataValue, 0.96000000000000008, 0, 0.0042898, 0.42504, 124.70511445755049, 0.0042898, 99.081542263042564
DataValue, 0.97000000000000008, 0, 0.0043258, 0.42956, 124.93411623283555, 0.0043258, 99.30186323916962
DataValue, 0.98000000000000009, 0, 0.0043682, 0.4322, 125.40634586328466, 0.0043682, 98.942356119225309
DataValue, 0.9900000000000001, 0, 0.0043906, 0.43507999999999997, 126.38819295768235, 0.0043906, 99.093517970209078
DataValue, 1, 0, 0.004419, 0.43811999999999995, 127.15093912649921, 0.004419, 99.14460285132381
DataValue, 1.01, 0, 0.004444, 0.43983999999999995, 128.29882988298829, 0.004444, 98.973897389738966
DataValue, 1.02, 0, 0.0044828, 0.44411999999999996, 128.46435263674491, 0.0044828, 99.072008566074757
DataValue, 1.03, 0, 0.0045082, 0.44792, 129.115833370303, 0.0045082, 99.356727740561638
DataValue, 1.04, 0, 0.0045588, 0.45243999999999995, 128.88479424409934, 0.0045588, 99.245415460208818
DataValue, 1.05, 0, 0.0045832, 0.45808, 129.14993890731367, 0.0045832, 99.947634840286256
DataValue, 1.06, 0, 0.004634, 0.4604, 129.39145446698319, 0.004634, 99.352611135088466
DataValue, 1.07, 0, 0.0046592000000000005, 0.46255999999999997, 130.3743131868132, 0.0046592000000000005, 99.278846153846132
DataValue, 1.08, 0, 0.0046714, 0.46599999999999997, 131.43811277133196, 0.0046714, 99.755961810163967
DataValue, 1.09, 0, 0.0047246, 0.46931999999999996, 131.3719679972908, 0.0047246, 99.335393472463267
DataValue, 1.1, 0, 0.0047744, 0.47528, 130.84785522788206, 0.0047744, 99.5475871313673
DataValue, 1.11, 0, 0.0048308, 0.48056, 130.29725925312582, 0.0048308, 99.478347271673428
DataValue, 1.12, 0, 0.0048718, 0.48307999999999995, 130.73607290939697, 0.0048718, 99.15842193850321
DataValue, 1.1300000000000001, 0, 0.0048958000000000005, 0.49016, 130.69161321949429, 0.0048958000000000005, 100.11846889170307
DataValue, 1.1400000000000001, 0, 0.004961, 0.49351999999999996, 130.31243700866764, 0.004961, 99.47994355976617
DataValue, 1.1500000000000001, 0, 0.005, 0.49795999999999996, 130.40800000000004, 0.005, 99.591999999999985
DataValue, 1.1600000000000001, 0, 0.0050004, 0.49704, 132.58139348852095, 0.0050004, 99.4000479961603
DataValue, 1.1700000000000002, 0, 0.0050002, 0.497, 134.59461621535144, 0.0050002, 99.396024159033644
DataValue, 1.1800000000000002, 0, 0.0050002, 0.49692, 136.6105355785769, 0.0050002, 99.380024799008041
DataValue, 1.19, 0, 0.0050006, 0.49704, 138.57537095548534, 0.0050006, 99.396072471303441
DataValue, 1.2, 0, 0.0050002, 0.49735999999999997, 140.52237910483581, 0.0050002, 99.468021279148829
DataValue, 1.21, 0, 0.0050002, 0.49656, 142.68229270829167, 0.0050002, 99.308027678892856
DataValue, 1.22, 0, 0.0050002, 0.49723999999999996, 144.54621815127396, 0.0050002, 99.444022239110438
DataValue, 1.23, 0, 0.0050002, 0.49756, 146.48214071437144, 0.0050002, 99.508019679212836
DataValue, 1.24, 0, 0.0050002, 0.49776, 148.44206231750732, 0.0050002, 99.548018079276829
DataValue, 1.25, 0, 0.0050002, 0.49784, 150.42598296068158, 0.0050002, 99.564017439302432
DataValue, 1.26, 0, 0.005, 0.49779999999999996, 152.44, 0.005, 99.559999999999988
DataValue, 1.27, 0, 0.0050002, 0.49795999999999996, 154.40182392704293, 0.0050002, 99.588016479340823
DataValue, 1.28, 0, 0.0050002, 0.4976, 156.473741050358, 0.0050002, 99.516019359225638
DataValue, 1.29, 0, 0.0050006, 0.49707999999999997, 158.5649722033356, 0.0050006, 99.404071511418621
DataValue, 1.3, 0, 0.0050002, 0.49723999999999996, 160.54557817687297, 0.0050002, 99.444022239110438
DataValue, 1.3, 0, 0.0050004, 0.49772, 160.44316454683627, 0.0050004, 99.536037117030631
DataValue, 1.29, 0, 0.005, 0.49735999999999997, 158.528, 0.005, 99.472
