
SetupTitle, DualSET
PrimitiveTest, I/V Sweep
TestParameter, Context.MainFrame, B1500A
TestParameter, Channel.UnitType, SMU, SMU, SMU
TestParameter, Channel.Unit, SMU4:MP, SMU2:MP, SMU1:MP
TestParameter, Channel.IName, Irow, Icol, Igate
TestParameter, Channel.VName, Vrow, Vcol, Vgate
TestParameter, Channel.Mode, V, V, I
TestParameter, Channel.Func, VAR1, CONST, CONST
TestParameter, Channel.Index, 
TestParameter, Channel.Time, 
TestParameter, Measurement.Port.Unit, SMU4:MP, SMU2:MP, SMU1:MP
TestParameter, Measurement.Port.SeriesResistor, NONE, NONE, NONE
TestParameter, Measurement.Port.Filter, ON, ON, ON
TestParameter, Measurement.Port.OutputVoltageComparison, 0, 0, 0
TestParameter, Measurement.Primary.Locus, Double
TestParameter, Measurement.Primary.Scale, LINEAR
TestParameter, Measurement.Primary.Start, 0
TestParameter, Measurement.Primary.Stop, 1.3
TestParameter, Measurement.Primary.Step, 0.01
TestParameter, Measurement.Primary.Compliance, 0.004
TestParameter, Measurement.Primary.PowerCompliance, 0
TestParameter, Measurement.Aborting.Condition, CONTINUE AT ANY
TestParameter, Measurement.PostOutput.Value, START
TestParameter, Measurement.PostOutput.Retention, OFF
TestParameter, Measurement.Bias.Source, 0, 0, 1E-13
TestParameter, Measurement.Bias.Compliance, 0.004, 0.1, 10
TestParameter, Measurement.Monitor.Unit, SMU4:MP, SMU2:MP, SMU1:MP
TestParameter, Measurement.Monitor.Adc, HR ADC, HR ADC, HR ADC
TestParameter, Measurement.Monitor.Measurement, Compliance Side, Compliance Side, Compliance Side
TestParameter, Measurement.Monitor.RangingMode, LIMITED, LIMITED, LIMITED
TestParameter, Measurement.Monitor.RangeBoundary, 1nA, 1nA, 2V
TestParameter, Measurement.Monitor.RangeRating, BY FULL RANGE, BY FULL RANGE
TestParameter, Measurement.Monitor.RangeRatingCoeff, 50, 50
TestParameter, Measurement.Timing.Hold, 0
TestParameter, Measurement.Timing.Delay, 0
TestParameter, Measurement.Adc.HighSpeed.Mode, AUTO
TestParameter, Measurement.Adc.HighSpeed.Coeff, 1
TestParameter, Measurement.Adc.HighResolution.AutoZero, OFF
TestParameter, Measurement.Adc.HighResolution.Mode, AUTO
TestParameter, Measurement.Adc.HighResolution.Coeff, 6
TestParameter, Measurement.WaitTime.Source.Coeff, 1
TestParameter, Measurement.WaitTime.Source.Offset, 0
TestParameter, Measurement.WaitTime.Monitor.Coeff, 1
TestParameter, Measurement.WaitTime.Monitor.Offset, 0
TestParameter, Function.User.Name, R1, absIrow, R2
TestParameter, Function.User.Unit, ohm, A, ohm
TestParameter, Function.User.Definition, abs((Vrow-Vgate)/Irow), abs(Irow), abs(Vgate/Irow)
TestParameter, Output.Graph.Enabled, true
TestParameter, Output.Graph.AutoScaling, false
TestParameter, Output.Graph.XAxis.Data, Vrow
TestParameter, Output.Graph.XAxis.Scale, Linear
TestParameter, Output.Graph.XAxis.Left, 0
TestParameter, Output.Graph.XAxis.Right, 1.5
TestParameter, Output.Graph.XAxis.RunTimeAutoScale, true
TestParameter, Output.Graph.YAxis.Data, absIrow, Vgate
TestParameter, Output.Graph.YAxis.Scale, Linear, Linear
TestParameter, Output.Graph.YAxis.Bottom, 0, -0.1
TestParameter, Output.Graph.YAxis.Top, 1, 0.1
TestParameter, Output.Graph.YAxis.Group, , 
TestParameter, Output.Graph.YAxis.RunTimeAutoScale, true, true
TestParameter, Output.List.Data, Vrow, Vcol, R1, R2, Vgate, Irow
TestParameter, AutoAnalysis.Interpolation, false
TestParameter, AutoAnalysis.Line1.Enabled, false
TestParameter, AutoAnalysis.Line1.Type, 1
TestParameter, AutoAnalysis.Line1.Fix, True
TestParameter, AutoAnalysis.Line1.YAxis, 0
TestParameter, AutoAnalysis.Line1.Point1.Type, 0
TestParameter, AutoAnalysis.Line1.Point1.XY.X, 
TestParameter, AutoAnalysis.Line1.Point1.XY.Y, 
TestParameter, AutoAnalysis.Line1.Point1.Data.Var, 
TestParameter, AutoAnalysis.Line1.Point1.Data.Condition, 
TestParameter, AutoAnalysis.Line1.Point1.Data.Start, false
TestParameter, AutoAnalysis.Line1.Point1.Data.StartVar, 
TestParameter, AutoAnalysis.Line1.Point1.Data.StartCondition, 
TestParameter, AutoAnalysis.Line1.Point2.Type, 0
TestParameter, AutoAnalysis.Line1.Point2.XY.X, 
TestParameter, AutoAnalysis.Line1.Point2.XY.Y, 
TestParameter, AutoAnalysis.Line1.Point2.Data.Var, 
TestParameter, AutoAnalysis.Line1.Point2.Data.Condition, 
TestParameter, AutoAnalysis.Line1.Point2.Data.Start, false
TestParameter, AutoAnalysis.Line1.Point2.Data.StartVar, 
TestParameter, AutoAnalysis.Line1.Point2.Data.StartCondition, 
TestParameter, AutoAnalysis.Line1.GradientExpr, 0
TestParameter, AutoAnalysis.Line2.Enabled, false
TestParameter, AutoAnalysis.Line2.Type, 1
TestParameter, AutoAnalysis.Line2.Fix, True
TestParameter, AutoAnalysis.Line2.YAxis, 0
TestParameter, AutoAnalysis.Line2.Point1.Type, 0
TestParameter, AutoAnalysis.Line2.Point1.XY.X, 
TestParameter, AutoAnalysis.Line2.Point1.XY.Y, 
TestParameter, AutoAnalysis.Line2.Point1.Data.Var, 
TestParameter, AutoAnalysis.Line2.Point1.Data.Condition, 
TestParameter, AutoAnalysis.Line2.Point1.Data.Start, false
TestParameter, AutoAnalysis.Line2.Point1.Data.StartVar, 
TestParameter, AutoAnalysis.Line2.Point1.Data.StartCondition, 
TestParameter, AutoAnalysis.Line2.Point2.Type, 0
TestParameter, AutoAnalysis.Line2.Point2.XY.X, 
TestParameter, AutoAnalysis.Line2.Point2.XY.Y, 
TestParameter, AutoAnalysis.Line2.Point2.Data.Var, 
TestParameter, AutoAnalysis.Line2.Point2.Data.Condition, 
TestParameter, AutoAnalysis.Line2.Point2.Data.Start, false
TestParameter, AutoAnalysis.Line2.Point2.Data.StartVar, 
TestParameter, AutoAnalysis.Line2.Point2.Data.StartCondition, 
TestParameter, AutoAnalysis.Line2.GradientExpr, 0
TestParameter, AutoAnalysis.Marker.Enabled, false
TestParameter, AutoAnalysis.Marker.Data.Var, 
TestParameter, AutoAnalysis.Marker.Data.Condition, 
TestParameter, AutoAnalysis.Marker.Data.Start, false
TestParameter, AutoAnalysis.Marker.Data.StartVar, 
TestParameter, AutoAnalysis.Marker.Data.StartCondition, 
MetaData, TestRecord.EntryPoint, true
MetaData, TestRecord.RecordTime, 03/21/2019 19:27:58
MetaData, TestRecord.TestTarget, 3,4
MetaData, TestRecord.IterationIndex, 1
MetaData, TestRecord.Preservation, true
MetaData, TestRecord.Flag, 
MetaData, TestRecord.Remarks, 
MetaData, TestRecord.LinkKey, 55eb41b1-9ba4-4683-8ed3-5fcefc89b1f6
Dimension1, 262, 262, 262, 262, 262, 262, 262
Dimension2, 1, 1, 1, 1, 1, 1, 1
DataName, Vrow, Vcol, Irow, Vgate, R1, absIrow, R2
DataValue, 0, 0, 2.3581E-09, 3.9999999999999996E-05, 16962.809041177217, 2.3581E-09, 16962.809041177217
DataValue, 0.01, 0, 6.1724E-07, 0.00148, 13803.382800855419, 6.1724E-07, 2397.7707212753544
DataValue, 0.02, 0, 1.2383E-06, 0.00296, 13760.801098279899, 1.2383E-06, 2390.3738997012033
DataValue, 0.030000000000000002, 0, 1.8701E-06, 0.00452, 13624.939842789156, 1.8701E-06, 2416.9830490348108
DataValue, 0.04, 0, 2.5035000000000003E-06, 0.006, 13580.986618733772, 2.5035000000000003E-06, 2396.6446974236069
DataValue, 0.05, 0, 3.1599000000000004E-06, 0.0076, 13418.14614386531, 3.1599000000000004E-06, 2405.1394031456689
DataValue, 0.060000000000000005, 0, 3.8039000000000005E-06, 0.00916, 13365.230421409606, 3.8039000000000005E-06, 2408.0548910328871
DataValue, 0.07, 0, 4.4817000000000006E-06, 0.010759999999999999, 13218.198451480464, 4.4817000000000006E-06, 2400.8746680946956
DataValue, 0.08, 0, 5.1639000000000007E-06, 0.0124, 13090.880923333139, 5.1639000000000007E-06, 2401.2858498421733
DataValue, 0.090000000000000011, 0, 5.875600000000001E-06, 0.014079999999999999, 12921.233576145416, 5.875600000000001E-06, 2396.3510109605822
DataValue, 0.1, 0, 6.6005000000000006E-06, 0.01588, 12744.489053859556, 6.6005000000000006E-06, 2405.8783425498063
DataValue, 0.11, 0, 7.344E-06, 0.01752, 12592.592592592593, 7.344E-06, 2385.62091503268
DataValue, 0.12000000000000001, 0, 8.1E-06, 0.01944, 12414.814814814816, 8.1E-06, 2399.9999999999995
DataValue, 0.13, 0, 8.908E-06, 0.02132, 12200.269420745397, 8.908E-06, 2393.3542882801976
DataValue, 0.14, 0, 9.7144000000000014E-06, 0.02324, 12019.270361525159, 9.7144000000000014E-06, 2392.3247961788684
DataValue, 0.15, 0, 1.0513900000000001E-05, 0.0252, 11870.000665785292, 1.0513900000000001E-05, 2396.8270575143379
DataValue, 0.16, 0, 1.1360000000000001E-05, 0.0272, 11690.140845070422, 1.1360000000000001E-05, 2394.3661971830984
DataValue, 0.17, 0, 1.2236000000000001E-05, 0.029359999999999997, 11493.952271984308, 1.2236000000000001E-05, 2399.4769532526966
DataValue, 0.18000000000000002, 0, 1.3134E-05, 0.03152, 11305.009897974724, 1.3134E-05, 2399.8781787726512
DataValue, 0.19, 0, 1.4074000000000001E-05, 0.0338, 11098.479465681397, 1.4074000000000001E-05, 2401.5915873241433
DataValue, 0.2, 0, 1.5018000000000001E-05, 0.03596, 10922.892528965242, 1.5018000000000001E-05, 2394.4599813557061
DataValue, 0.21000000000000002, 0, 1.5968E-05, 0.03832, 10751.503006012026, 1.5968E-05, 2399.7995991983967
DataValue, 0.22, 0, 1.6968E-05, 0.04052, 10577.557755775577, 1.6968E-05, 2388.0245167373878
DataValue, 0.23, 0, 1.805E-05, 0.04324, 10346.814404432133, 1.805E-05, 2395.5678670360107
DataValue, 0.24000000000000002, 0, 1.9074E-05, 0.04564, 10189.787144804448, 1.9074E-05, 2392.7859914019082
DataValue, 0.25, 0, 2.0178000000000002E-05, 0.048279999999999997, 9997.02646446625, 2.0178000000000002E-05, 2392.7049261572006
DataValue, 0.26, 0, 2.1284E-05, 0.05076, 9830.85886111633, 2.1284E-05, 2384.8900582597253
DataValue, 0.27, 0, 2.2394E-05, 0.053439999999999994, 9670.447441278915, 2.2394E-05, 2386.3534875413056
DataValue, 0.28, 0, 2.356E-05, 0.05624, 9497.4533106960953, 2.356E-05, 2387.0967741935483
DataValue, 0.29000000000000004, 0, 2.4764000000000002E-05, 0.059, 9328.0568567275077, 2.4764000000000002E-05, 2382.4907123243415
DataValue, 0.3, 0, 2.6008000000000002E-05, 0.061959999999999994, 9152.5684404798521, 2.6008000000000002E-05, 2382.3438941864038
DataValue, 0.31, 0, 2.7258000000000002E-05, 0.06488, 8992.5893315723824, 2.7258000000000002E-05, 2380.2186514050918
DataValue, 0.32, 0, 2.8596000000000002E-05, 0.06784, 8818.0165058050061, 2.8596000000000002E-05, 2372.3597705972861
DataValue, 0.33, 0, 2.9884E-05, 0.07084, 8672.19917012448, 2.9884E-05, 2370.4992638201043
DataValue, 0.34, 0, 3.1230000000000004E-05, 0.07392, 8520.0128081972471, 3.1230000000000004E-05, 2366.9548511047069
DataValue, 0.35000000000000003, 0, 3.2646E-05, 0.07736, 8351.4059915456728, 3.2646E-05, 2369.6624395025424
DataValue, 0.36000000000000004, 0, 3.4098000000000005E-05, 0.08036, 8201.0675112909848, 3.4098000000000005E-05, 2356.7364654818462
DataValue, 0.37, 0, 3.5558E-05, 0.08384, 8047.69672085044, 3.5558E-05, 2357.8378986444682
DataValue, 0.38, 0, 3.7086000000000004E-05, 0.08724, 7894.0840209243379, 3.7086000000000004E-05, 2352.3701666397019
DataValue, 0.39, 0, 3.8626E-05, 0.09076, 7747.1133433438617, 3.8626E-05, 2349.7126287992542
DataValue, 0.4, 0, 4.0256E-05, 0.09432, 7593.4022257551669, 4.0256E-05, 2343.0047694753575
DataValue, 0.41000000000000003, 0, 4.1822E-05, 0.09792, 7462.101286404285, 4.1822E-05, 2341.3514418248765
DataValue, 0.42000000000000004, 0, 4.3564E-05, 0.10167999999999999, 7306.9506932329459, 4.3564E-05, 2334.0372784868241
DataValue, 0.43, 0, 4.5322000000000004E-05, 0.10543999999999999, 7161.2020652221872, 4.5322000000000004E-05, 2326.4639689334094
DataValue, 0.44, 0, 4.6936E-05, 0.109, 7052.1561274927562, 4.6936E-05, 2322.3112323163455
DataValue, 0.45, 0, 4.8712000000000004E-05, 0.11288, 6920.6766299885039, 4.8712000000000004E-05, 2317.2934800459843
DataValue, 0.46, 0, 5.0502E-05, 0.11696, 6792.6022731773, 5.0502E-05, 2315.9478832521486
DataValue, 0.47000000000000003, 0, 5.238E-05, 0.12083999999999999, 6665.9030164184805, 5.238E-05, 2306.9873997709046
DataValue, 0.48000000000000004, 0, 5.427E-05, 0.12476, 6545.7895706651934, 5.427E-05, 2298.8759904182789
DataValue, 0.49000000000000005, 0, 5.6196E-05, 0.12868, 6429.6391202220811, 5.6196E-05, 2289.8426934301369
DataValue, 0.5, 0, 5.8118E-05, 0.13316, 6311.9859595994358, 5.8118E-05, 2291.2006607247322
DataValue, 0.51, 0, 6.0048000000000005E-05, 0.13727999999999999, 6207.0343725019984, 6.0048000000000005E-05, 2286.17106314948
DataValue, 0.52, 0, 6.215E-05, 0.14115999999999998, 6095.5752212389389, 6.215E-05, 2271.2791633145612
DataValue, 0.53, 0, 6.429E-05, 0.14548, 5981.0234873230684, 6.429E-05, 2262.87136413128
DataValue, 0.54, 0, 6.626E-05, 0.14972, 5890.1297917295506, 6.626E-05, 2259.5834591005128
DataValue, 0.55, 0, 6.8382E-05, 0.1538, 5793.9223772337764, 6.8382E-05, 2249.1298879822175
DataValue, 0.56, 0, 7.0534E-05, 0.15832, 5694.8422037598893, 7.0534E-05, 2244.5912609521647
DataValue, 0.57000000000000006, 0, 7.2880000000000007E-05, 0.16283999999999999, 5586.717892425906, 7.2880000000000007E-05, 2234.3578485181115
DataValue, 0.58000000000000007, 0, 7.5146E-05, 0.16696, 5496.5001463817107, 7.5146E-05, 2221.8082133446887
DataValue, 0.59000000000000008, 0, 7.733E-05, 0.17192, 5406.439932755723, 7.733E-05, 2223.1992758308543
DataValue, 0.6, 0, 7.969E-05, 0.17656, 5313.5901618772741, 7.969E-05, 2215.5853933994226
DataValue, 0.61, 0, 8.2116E-05, 0.18123999999999998, 5221.3941253836038, 8.2116E-05, 2207.1216328121195
DataValue, 0.62, 0, 8.454E-05, 0.18572, 5136.9765791341379, 8.454E-05, 2196.829903004495
DataValue, 0.63, 0, 8.6948000000000008E-05, 0.19039999999999999, 5055.89547775682, 8.6948000000000008E-05, 2189.814601830979
DataValue, 0.64, 0, 8.9636000000000007E-05, 0.19483999999999999, 4966.3081797492077, 8.9636000000000007E-05, 2173.6802177696459
DataValue, 0.65, 0, 9.2064E-05, 0.19996, 4888.3385470976709, 9.2064E-05, 2171.9673270768162
DataValue, 0.66, 0, 9.4904E-05, 0.20507999999999999, 4793.4755120964346, 9.4904E-05, 2160.9205091460844
DataValue, 0.67, 0, 9.7724E-05, 0.21028, 4704.269166223241, 9.7724E-05, 2151.7743850026604
DataValue, 0.68, 0, 0.000100454, 0.21539999999999998, 4625.0024887012969, 0.000100454, 2144.2650367332308
DataValue, 0.69000000000000006, 0, 0.000103344, 0.21988, 4549.078804768541, 0.000103344, 2127.6513392165966
DataValue, 0.70000000000000007, 0, 0.000105962, 0.22552, 4477.8316755063142, 0.000105962, 2128.3101489213113
DataValue, 0.71000000000000008, 0, 0.000108968, 0.2302, 4403.1275236766769, 0.000108968, 2112.5468027310767
DataValue, 0.72000000000000008, 0, 0.000111896, 0.23551999999999998, 4329.734753699865, 0.000111896, 2104.81161078144
DataValue, 0.73, 0, 0.00011485, 0.24064, 4260.8619939050941, 0.00011485, 2095.2546800174141
DataValue, 0.74, 0, 0.00011776000000000001, 0.24631999999999998, 4192.2554347826081, 0.00011776000000000001, 2091.711956521739
DataValue, 0.75, 0, 0.00012072000000000001, 0.25123999999999996, 4131.544068919814, 0.00012072000000000001, 2081.1795891318748
DataValue, 0.76, 0, 0.00012382000000000002, 0.25664, 4065.2560167985785, 0.00012382000000000002, 2072.686157325149
DataValue, 0.77, 0, 0.00012732000000000002, 0.26152, 3993.7166195413129, 0.00012732000000000002, 2054.0370719447055
DataValue, 0.78, 0, 0.00013098, 0.26772, 3911.1314704535048, 0.00013098, 2043.9761795694
DataValue, 0.79, 0, 0.00013346, 0.27324, 3872.021579499476, 0.00013346, 2047.3550127378987
DataValue, 0.8, 0, 0.00013722000000000002, 0.27892, 3797.4056260020398, 0.00013722000000000002, 2032.6483019967932
DataValue, 0.81, 0, 0.00014072000000000002, 0.2838, 3739.3405343945419, 0.00014072000000000002, 2016.7708925525865
DataValue, 0.82000000000000006, 0, 0.00014402000000000002, 0.28892, 3687.5433967504509, 0.00014402000000000002, 2006.1102624635464
DataValue, 0.83000000000000007, 0, 0.00014772, 0.29516, 3620.6336311941518, 0.00014772, 1998.1045220687786
DataValue, 0.84000000000000008, 0, 0.0001515, 0.30063999999999996, 3560.1320132013207, 0.0001515, 1984.4224422442242
DataValue, 0.85000000000000009, 0, 0.00015470000000000002, 0.30724, 3508.46800258565, 0.00015470000000000002, 1986.0374919198448
DataValue, 0.86, 0, 0.00015836000000000002, 0.31328, 3452.3869664056574, 0.00015836000000000002, 1978.2773427633238
DataValue, 0.87, 0, 0.00016172000000000002, 0.31795999999999996, 3413.5542913677964, 0.00016172000000000002, 1966.114271580509
DataValue, 0.88, 0, 0.00016594, 0.32388, 3351.3318066771117, 0.00016594, 1951.7898035434494
DataValue, 0.89, 0, 0.00016964, 0.33011999999999997, 3300.4008488564018, 0.00016964, 1946.0033011082289
DataValue, 0.9, 0, 0.00017362, 0.33532, 3252.3902776177861, 0.00017362, 1931.3443151710633
DataValue, 0.91, 0, 0.00017794000000000002, 0.34076, 3199.0558615263567, 0.00017794000000000002, 1915.0275373721477
DataValue, 0.92, 0, 0.00018192000000000002, 0.3478, 3145.3386103781882, 0.00018192000000000002, 1911.829375549692
DataValue, 0.93, 0, 0.00018608, 0.35356, 3097.8073946689597, 0.00018608, 1900.0429922613928
DataValue, 0.94000000000000006, 0, 0.00019078, 0.3594, 3043.2959429709613, 0.00019078, 1883.8452667994548
DataValue, 0.95000000000000007, 0, 0.00019452, 0.36372, 3013.983137980671, 0.00019452, 1869.8334361505242
DataValue, 0.96000000000000008, 0, 0.00019872000000000002, 0.37004, 2968.8003220611913, 0.00019872000000000002, 1862.1175523349434
DataValue, 0.97000000000000008, 0, 0.0002033, 0.37672, 2918.2488932611905, 0.0002033, 1853.025086079685
DataValue, 0.98000000000000009, 0, 0.00020744, 0.38308, 2877.5549556498268, 0.00020744, 1846.7026610104124
DataValue, 0.9900000000000001, 0, 0.00021214, 0.38904, 2832.8462336193088, 0.00021214, 1833.8832846233618
DataValue, 1, 0, 0.00021644, 0.39483999999999997, 2795.9711698392166, 0.00021644, 1824.24690445389
DataValue, 1.01, 0, 0.00022038, 0.40032, 2766.4942372266087, 0.00022038, 1816.4987748434523
DataValue, 1.02, 0, 0.00022626000000000002, 0.40584, 2714.3993635640413, 0.00022626000000000002, 1793.6886767435692
DataValue, 1.03, 0, 0.00023146, 0.4124, 2668.2796163483972, 0.00023146, 1781.7333448544023
DataValue, 1.04, 0, 0.00023490000000000002, 0.41919999999999996, 2642.8267347807578, 0.00023490000000000002, 1784.5891868880372
DataValue, 1.05, 0, 0.0002413, 0.42432, 2592.9548280149193, 0.0002413, 1758.4749274761705
DataValue, 1.06, 0, 0.00024654, 0.43051999999999996, 2553.2570779589519, 0.00024654, 1746.2480733349555
DataValue, 1.07, 0, 0.00025124, 0.437, 2519.5032638114949, 0.00025124, 1739.3727113516954
DataValue, 1.08, 0, 0.00025662, 0.44351999999999997, 2480.2431610942258, 0.00025662, 1728.3142389525367
DataValue, 1.09, 0, 0.00026262000000000003, 0.44992, 2437.2858122001371, 0.00026262000000000003, 1713.1977762546642
DataValue, 1.1, 0, 0.00026746, 0.4566, 2405.59335975473, 0.00026746, 1707.1711657817991
DataValue, 1.11, 0, 0.00027398, 0.46403999999999995, 2357.6903423607564, 0.00027398, 1693.7002700927073
DataValue, 1.12, 0, 0.00027936000000000004, 0.46984, 2327.319587628866, 0.00027936000000000004, 1681.8442153493697
DataValue, 1.1300000000000001, 0, 0.00028464, 0.47696, 2294.266441821248, 0.00028464, 1675.6604834176503
DataValue, 1.1400000000000001, 0, 0.0002898, 0.48468, 2261.28364389234, 0.0002898, 1672.463768115942
DataValue, 1.1500000000000001, 0, 0.0002945, 0.49107999999999996, 2237.41935483871, 0.0002945, 1667.5042444821731
DataValue, 1.1600000000000001, 0, 0.0003064, 0.49444, 2172.1932114882511, 0.0003064, 1613.7075718015665
DataValue, 1.1700000000000002, 0, 0.00031196, 0.5012, 2143.8645980253882, 0.00031196, 1606.6162328503654
DataValue, 1.1800000000000002, 0, 0.00031630000000000004, 0.50728, 2126.841606070187, 0.00031630000000000004, 1603.7938665823581
DataValue, 1.19, 0, 0.00032364000000000004, 0.51356, 2090.1001112347049, 0.00032364000000000004, 1586.8248671363242
DataValue, 1.2, 0, 0.00032832, 0.51964, 2072.2465886939572, 0.00032832, 1582.7241715399609
DataValue, 1.21, 0, 0.00033486000000000003, 0.52704, 2039.5389117840291, 0.00033486000000000003, 1573.911485396882
DataValue, 1.22, 0, 0.00034162, 0.53292, 2011.2405596862011, 0.00034162, 1559.9789239505883
DataValue, 1.23, 0, 0.00034682, 0.53964, 1990.542644599504, 0.00034682, 1555.9656305864712
DataValue, 1.24, 0, 0.00035368000000000004, 0.5474, 1958.2673603257179, 0.00035368000000000004, 1547.7267586518885
