
SetupTitle, DualSET
PrimitiveTest, I/V Sweep
TestParameter, Context.MainFrame, B1500A
TestParameter, Channel.UnitType, SMU, SMU, SMU
TestParameter, Channel.Unit, SMU4:MP, SMU2:MP, SMU1:MP
TestParameter, Channel.IName, Irow, Icol, Igate
TestParameter, Channel.VName, Vrow, Vcol, Vgate
TestParameter, Channel.Mode, V, V, I
TestParameter, Channel.Func, VAR1, CONST, CONST
TestParameter, Channel.Index, 
TestParameter, Channel.Time, 
TestParameter, Measurement.Port.Unit, SMU4:MP, SMU2:MP, SMU1:MP
TestParameter, Measurement.Port.SeriesResistor, NONE, NONE, NONE
TestParameter, Measurement.Port.Filter, ON, ON, ON
TestParameter, Measurement.Port.OutputVoltageComparison, 0, 0, 0
TestParameter, Measurement.Primary.Locus, Double
TestParameter, Measurement.Primary.Scale, LINEAR
TestParameter, Measurement.Primary.Start, 0
TestParameter, Measurement.Primary.Stop, 1.3
TestParameter, Measurement.Primary.Step, 0.01
TestParameter, Measurement.Primary.Compliance, 0.004
TestParameter, Measurement.Primary.PowerCompliance, 0
TestParameter, Measurement.Aborting.Condition, CONTINUE AT ANY
TestParameter, Measurement.PostOutput.Value, START
TestParameter, Measurement.PostOutput.Retention, OFF
TestParameter, Measurement.Bias.Source, 0, 0, 1E-13
TestParameter, Measurement.Bias.Compliance, 0.004, 0.1, 10
TestParameter, Measurement.Monitor.Unit, SMU4:MP, SMU2:MP, SMU1:MP
TestParameter, Measurement.Monitor.Adc, HR ADC, HR ADC, HR ADC
TestParameter, Measurement.Monitor.Measurement, Compliance Side, Compliance Side, Compliance Side
TestParameter, Measurement.Monitor.RangingMode, LIMITED, LIMITED, LIMITED
TestParameter, Measurement.Monitor.RangeBoundary, 1nA, 1nA, 2V
TestParameter, Measurement.Monitor.RangeRating, BY FULL RANGE, BY FULL RANGE
TestParameter, Measurement.Monitor.RangeRatingCoeff, 50, 50
TestParameter, Measurement.Timing.Hold, 0
TestParameter, Measurement.Timing.Delay, 0
TestParameter, Measurement.Adc.HighSpeed.Mode, AUTO
TestParameter, Measurement.Adc.HighSpeed.Coeff, 1
TestParameter, Measurement.Adc.HighResolution.AutoZero, OFF
TestParameter, Measurement.Adc.HighResolution.Mode, AUTO
TestParameter, Measurement.Adc.HighResolution.Coeff, 6
TestParameter, Measurement.WaitTime.Source.Coeff, 1
TestParameter, Measurement.WaitTime.Source.Offset, 0
TestParameter, Measurement.WaitTime.Monitor.Coeff, 1
TestParameter, Measurement.WaitTime.Monitor.Offset, 0
TestParameter, Function.User.Name, R1, absIrow, R2
TestParameter, Function.User.Unit, ohm, A, ohm
TestParameter, Function.User.Definition, abs((Vrow-Vgate)/Irow), abs(Irow), abs(Vgate/Irow)
TestParameter, Output.Graph.Enabled, true
TestParameter, Output.Graph.AutoScaling, false
TestParameter, Output.Graph.XAxis.Data, Vrow
TestParameter, Output.Graph.XAxis.Scale, Linear
TestParameter, Output.Graph.XAxis.Left, 0
TestParameter, Output.Graph.XAxis.Right, 1.5
TestParameter, Output.Graph.XAxis.RunTimeAutoScale, true
TestParameter, Output.Graph.YAxis.Data, absIrow, Vgate
TestParameter, Output.Graph.YAxis.Scale, Linear, Linear
TestParameter, Output.Graph.YAxis.Bottom, 0, -0.1
TestParameter, Output.Graph.YAxis.Top, 1, 0.1
TestParameter, Output.Graph.YAxis.Group, , 
TestParameter, Output.Graph.YAxis.RunTimeAutoScale, true, true
TestParameter, Output.List.Data, Vrow, Vcol, R1, R2, Vgate, Irow
TestParameter, AutoAnalysis.Interpolation, false
TestParameter, AutoAnalysis.Line1.Enabled, false
TestParameter, AutoAnalysis.Line1.Type, 1
TestParameter, AutoAnalysis.Line1.Fix, True
TestParameter, AutoAnalysis.Line1.YAxis, 0
TestParameter, AutoAnalysis.Line1.Point1.Type, 0
TestParameter, AutoAnalysis.Line1.Point1.XY.X, 
TestParameter, AutoAnalysis.Line1.Point1.XY.Y, 
TestParameter, AutoAnalysis.Line1.Point1.Data.Var, 
TestParameter, AutoAnalysis.Line1.Point1.Data.Condition, 
TestParameter, AutoAnalysis.Line1.Point1.Data.Start, false
TestParameter, AutoAnalysis.Line1.Point1.Data.StartVar, 
TestParameter, AutoAnalysis.Line1.Point1.Data.StartCondition, 
TestParameter, AutoAnalysis.Line1.Point2.Type, 0
TestParameter, AutoAnalysis.Line1.Point2.XY.X, 
TestParameter, AutoAnalysis.Line1.Point2.XY.Y, 
TestParameter, AutoAnalysis.Line1.Point2.Data.Var, 
TestParameter, AutoAnalysis.Line1.Point2.Data.Condition, 
TestParameter, AutoAnalysis.Line1.Point2.Data.Start, false
TestParameter, AutoAnalysis.Line1.Point2.Data.StartVar, 
TestParameter, AutoAnalysis.Line1.Point2.Data.StartCondition, 
TestParameter, AutoAnalysis.Line1.GradientExpr, 0
TestParameter, AutoAnalysis.Line2.Enabled, false
TestParameter, AutoAnalysis.Line2.Type, 1
TestParameter, AutoAnalysis.Line2.Fix, True
TestParameter, AutoAnalysis.Line2.YAxis, 0
TestParameter, AutoAnalysis.Line2.Point1.Type, 0
TestParameter, AutoAnalysis.Line2.Point1.XY.X, 
TestParameter, AutoAnalysis.Line2.Point1.XY.Y, 
TestParameter, AutoAnalysis.Line2.Point1.Data.Var, 
TestParameter, AutoAnalysis.Line2.Point1.Data.Condition, 
TestParameter, AutoAnalysis.Line2.Point1.Data.Start, false
TestParameter, AutoAnalysis.Line2.Point1.Data.StartVar, 
TestParameter, AutoAnalysis.Line2.Point1.Data.StartCondition, 
TestParameter, AutoAnalysis.Line2.Point2.Type, 0
TestParameter, AutoAnalysis.Line2.Point2.XY.X, 
TestParameter, AutoAnalysis.Line2.Point2.XY.Y, 
TestParameter, AutoAnalysis.Line2.Point2.Data.Var, 
TestParameter, AutoAnalysis.Line2.Point2.Data.Condition, 
TestParameter, AutoAnalysis.Line2.Point2.Data.Start, false
TestParameter, AutoAnalysis.Line2.Point2.Data.StartVar, 
TestParameter, AutoAnalysis.Line2.Point2.Data.StartCondition, 
TestParameter, AutoAnalysis.Line2.GradientExpr, 0
TestParameter, AutoAnalysis.Marker.Enabled, false
TestParameter, AutoAnalysis.Marker.Data.Var, 
TestParameter, AutoAnalysis.Marker.Data.Condition, 
TestParameter, AutoAnalysis.Marker.Data.Start, false
TestParameter, AutoAnalysis.Marker.Data.StartVar, 
TestParameter, AutoAnalysis.Marker.Data.StartCondition, 
MetaData, TestRecord.EntryPoint, true
MetaData, TestRecord.RecordTime, 03/21/2019 18:29:36
MetaData, TestRecord.TestTarget, 3,4
MetaData, TestRecord.IterationIndex, 1
MetaData, TestRecord.Preservation, true
MetaData, TestRecord.Flag, 
MetaData, TestRecord.Remarks, 
MetaData, TestRecord.LinkKey, 715153b3-2041-44ab-82b2-416a900fc811
Dimension1, 262, 262, 262, 262, 262, 262, 262
Dimension2, 1, 1, 1, 1, 1, 1, 1
DataName, Vrow, Vcol, Irow, Vgate, R1, absIrow, R2
DataValue, 0, 0, 2.4143E-09, 0.00011999999999999999, 49703.847906225405, 2.4143E-09, 49703.847906225405
DataValue, 0.01, 0, 4.4786E-07, 0.01004, 89.313624793462481, 4.4786E-07, 22417.719823159023
DataValue, 0.02, 0, 8.8864E-07, 0.02, 0, 8.8864E-07, 22506.301764494059
DataValue, 0.030000000000000002, 0, 1.3314E-06, 0.02992, 60.087126333185878, 1.3314E-06, 22472.585248610481
DataValue, 0.04, 0, 1.7800000000000001E-06, 0.03984, 89.887640449438436, 1.7800000000000001E-06, 22382.02247191011
DataValue, 0.05, 0, 2.2278E-06, 0.0498, 89.774665589373242, 2.2278E-06, 22353.891731753298
DataValue, 0.060000000000000005, 0, 2.6837000000000002E-06, 0.05976, 89.428773707942042, 2.6837000000000002E-06, 22267.764653277191
DataValue, 0.07, 0, 3.1531000000000004E-06, 0.06964, 114.17335320795822, 3.1531000000000004E-06, 22086.200881672
DataValue, 0.08, 0, 3.6170000000000003E-06, 0.07952, 132.70666298037273, 3.6170000000000003E-06, 21985.070500414706
DataValue, 0.090000000000000011, 0, 4.1058000000000006E-06, 0.08956, 107.16547323298985, 4.1058000000000006E-06, 21813.044960787178
DataValue, 0.1, 0, 4.6173000000000007E-06, 0.09944, 121.28300088796588, 4.6173000000000007E-06, 21536.395729105752
DataValue, 0.11, 0, 5.1216E-06, 0.1094, 117.15089034676727, 5.1216E-06, 21360.512339893783
DataValue, 0.12000000000000001, 0, 5.6706E-06, 0.11928, 126.97069093217866, 5.6706E-06, 21034.811131097238
DataValue, 0.13, 0, 6.2057000000000006E-06, 0.12928, 116.02236653399268, 6.2057000000000006E-06, 20832.4604798814
DataValue, 0.14, 0, 6.7612000000000006E-06, 0.1392, 118.32219132698675, 6.7612000000000006E-06, 20588.061290895104
DataValue, 0.15, 0, 7.3556E-06, 0.14912, 119.63673935504811, 7.3556E-06, 20272.989287073793
DataValue, 0.16, 0, 7.9753000000000014E-06, 0.15896, 130.40261808333392, 7.9753000000000014E-06, 19931.538625506248
DataValue, 0.17, 0, 8.6018000000000012E-06, 0.16892, 125.55511637099505, 8.6018000000000012E-06, 19637.750238322209
DataValue, 0.18000000000000002, 0, 9.2169000000000015E-06, 0.17884, 125.8557649535117, 9.2169000000000015E-06, 19403.487072660002
DataValue, 0.19, 0, 9.9307000000000013E-06, 0.18875999999999998, 124.86531664434719, 9.9307000000000013E-06, 19007.723524021465
DataValue, 0.2, 0, 1.0614E-05, 0.1986, 131.90126248351351, 1.0614E-05, 18711.136235161106
DataValue, 0.21000000000000002, 0, 1.1276400000000001E-05, 0.20864, 120.60586712071475, 1.1276400000000001E-05, 18502.358908871622
DataValue, 0.22, 0, 1.2056000000000001E-05, 0.21847999999999998, 126.07830126078477, 1.2056000000000001E-05, 18122.096881220965
DataValue, 0.23, 0, 1.2782E-05, 0.2284, 125.17602879048803, 1.2782E-05, 17868.878109841964
DataValue, 0.24000000000000002, 0, 1.3576E-05, 0.23823999999999998, 129.64054213317908, 1.3576E-05, 17548.615203299938
DataValue, 0.25, 0, 1.436E-05, 0.24819999999999998, 125.34818941504344, 1.436E-05, 17284.122562674092
DataValue, 0.26, 0, 1.5204E-05, 0.25804, 128.91344383057205, 1.5204E-05, 16971.849513285975
DataValue, 0.27, 0, 1.6066000000000002E-05, 0.26799999999999996, 124.48649321548967, 1.6066000000000002E-05, 16681.190090875134
DataValue, 0.28, 0, 1.6944E-05, 0.2778, 129.83947119924665, 1.6944E-05, 16395.184135977339
DataValue, 0.29000000000000004, 0, 1.7814E-05, 0.28772, 127.98922196025934, 1.7814E-05, 16151.341641405636
DataValue, 0.3, 0, 1.874E-05, 0.2976, 128.06830309498469, 1.874E-05, 15880.469583778013
DataValue, 0.31, 0, 1.9802E-05, 0.30756, 123.2198767801231, 1.9802E-05, 15531.764468235531
DataValue, 0.32, 0, 2.0656E-05, 0.31732, 129.74438419829664, 2.0656E-05, 15362.122385747482
DataValue, 0.33, 0, 2.1816E-05, 0.32716, 130.1796846351306, 2.1816E-05, 14996.332966629998
DataValue, 0.34, 0, 2.3008E-05, 0.33708, 126.91237830320034, 2.3008E-05, 14650.556328233657
DataValue, 0.35000000000000003, 0, 2.4182E-05, 0.34687999999999997, 129.02158630386515, 2.4182E-05, 14344.553800347365
DataValue, 0.36000000000000004, 0, 2.535E-05, 0.35675999999999997, 127.81065088757697, 2.535E-05, 14073.372781065087
DataValue, 0.37, 0, 2.6262E-05, 0.36668, 126.41839920798071, 2.6262E-05, 13962.3791028863
DataValue, 0.38, 0, 2.7744E-05, 0.37648, 126.87427912341491, 2.7744E-05, 13569.780853517877
DataValue, 0.39, 0, 2.911E-05, 0.38632, 126.41703881827607, 2.911E-05, 13271.040879422879
DataValue, 0.4, 0, 3.0198E-05, 0.39611999999999997, 128.4853301543165, 3.0198E-05, 13117.424995032783
DataValue, 0.41000000000000003, 0, 3.2066E-05, 0.4058, 130.97985405102094, 3.2066E-05, 12655.148755691385
DataValue, 0.42000000000000004, 0, 3.349E-05, 0.41563999999999995, 130.18811585548181, 3.349E-05, 12410.868916094356
DataValue, 0.43, 0, 3.4316E-05, 0.4256, 128.22007226949572, 3.4316E-05, 12402.377899522087
DataValue, 0.44, 0, 3.6056E-05, 0.43532, 129.79809185711164, 3.6056E-05, 12073.441313512314
DataValue, 0.45, 0, 3.727E-05, 0.44516, 129.86316071907729, 3.727E-05, 11944.191038368661
DataValue, 0.46, 0, 3.8896E-05, 0.45483999999999997, 132.66145619086933, 3.8896E-05, 11693.747429041545
DataValue, 0.47000000000000003, 0, 4.1542E-05, 0.46459999999999996, 129.98892686919433, 4.1542E-05, 11183.862115449423
DataValue, 0.48000000000000004, 0, 4.3432E-05, 0.47436, 129.85816909191456, 4.3432E-05, 10921.900902560325
DataValue, 0.49000000000000005, 0, 4.516E-05, 0.48412, 130.20372010628989, 4.516E-05, 10720.106288751107
DataValue, 0.5, 0, 4.6574000000000005E-05, 0.49388, 131.40378752093471, 4.6574000000000005E-05, 10604.199768110962
DataValue, 0.51, 0, 4.7808E-05, 0.50384, 128.84872824631975, 4.7808E-05, 10538.821954484603
DataValue, 0.52, 0, 4.985E-05, 0.51356, 129.18756268806422, 4.985E-05, 10302.10631895687
DataValue, 0.53, 0, 5.0992E-05, 0.52328, 131.78537809852642, 5.0992E-05, 10262.001882648257
DataValue, 0.54, 0, 5.3264000000000004E-05, 0.53304, 130.66987083208315, 5.3264000000000004E-05, 10007.509762691498
DataValue, 0.55, 0, 5.4916E-05, 0.54267999999999994, 133.29448612426441, 5.4916E-05, 9882.0016024473734
DataValue, 0.56, 0, 5.7252E-05, 0.55252, 130.65045762593519, 5.7252E-05, 9650.6672255991052
DataValue, 0.57000000000000006, 0, 6.0396E-05, 0.56212, 130.47221670309472, 6.0396E-05, 9307.2388899927137
DataValue, 0.58000000000000007, 0, 6.2722E-05, 0.5718, 130.7356270527103, 6.2722E-05, 9116.41848155352
DataValue, 0.59000000000000008, 0, 6.4696E-05, 0.58151999999999993, 131.07456411524908, 6.4696E-05, 8988.5000618276226
DataValue, 0.6, 0, 6.6418E-05, 0.59139999999999993, 129.48297148363474, 6.6418E-05, 8904.2127134210587
DataValue, 0.61, 0, 6.7552E-05, 0.60144, 126.71719564187606, 6.7552E-05, 8903.3633349123629
DataValue, 0.62, 0, 6.5488000000000007E-05, 0.61144, 130.71096994869305, 6.5488000000000007E-05, 9336.6723674566329
DataValue, 0.63, 0, 6.8176E-05, 0.62091999999999992, 133.18469842760044, 6.8176E-05, 9107.6038488617669
DataValue, 0.64, 0, 7.1456E-05, 0.63059999999999994, 131.54948499776191, 7.1456E-05, 8825.01119570085
DataValue, 0.65, 0, 7.3544E-05, 0.64035999999999993, 131.07799412596668, 7.3544E-05, 8707.1684977700424
DataValue, 0.66, 0, 7.6804E-05, 0.64991999999999994, 131.24316441852102, 7.6804E-05, 8462.05926774647
DataValue, 0.67, 0, 8.0602E-05, 0.65936, 132.00664995905925, 8.0602E-05, 8180.4421726508026
DataValue, 0.68, 0, 8.629E-05, 0.6686, 132.11264341175195, 8.629E-05, 7748.2906478155055
DataValue, 0.69000000000000006, 0, 8.6506E-05, 0.67852, 132.707557857259, 8.6506E-05, 7843.6177837375444
DataValue, 0.70000000000000007, 0, 9.0772E-05, 0.68812, 130.87736306350098, 9.0772E-05, 7580.7517736747
DataValue, 0.71000000000000008, 0, 9.6836E-05, 0.69716, 132.59531579164849, 9.6836E-05, 7199.3886571109915
DataValue, 0.72000000000000008, 0, 0.00010464400000000001, 0.70644, 129.58220251519558, 0.00010464400000000001, 6750.8887274951248
DataValue, 0.73, 0, 0.000107824, 0.716, 129.84122273334333, 0.000107824, 6640.4511055052672
DataValue, 0.74, 0, 0.00014528000000000002, 0.7208, 132.15859030836998, 0.00014528000000000002, 4961.4537444933912
DataValue, 0.75, 0, 0.00015208000000000002, 0.72992, 132.03577064702776, 0.00015208000000000002, 4799.579168858495
DataValue, 0.76, 0, 0.00015786, 0.73896, 133.28265551754757, 0.00015786, 4681.1098441657159
DataValue, 0.77, 0, 0.00015616000000000002, 0.74928, 132.68442622950863, 0.00015616000000000002, 4798.1557377049166
DataValue, 0.78, 0, 0.00016386000000000002, 0.75803999999999994, 134.01684364701629, 0.00016386000000000002, 4626.1442694983516
DataValue, 0.79, 0, 0.00017232, 0.76728, 131.84772516248881, 0.00017232, 4452.6462395543176
DataValue, 0.8, 0, 0.00017952000000000002, 0.77672, 129.67914438502717, 0.00017952000000000002, 4326.6488413547231
DataValue, 0.81, 0, 0.00017776, 0.78604, 134.7884788478853, 0.00017776, 4421.9171917191716
DataValue, 0.82000000000000006, 0, 0.00018692, 0.79543999999999992, 131.393109351595, 0.00018692, 4255.5103787716662
DataValue, 0.83000000000000007, 0, 0.00019472, 0.80463999999999991, 130.238290879212, 0.00019472, 4132.2925225965482
DataValue, 0.84000000000000008, 0, 0.00021094, 0.81128, 136.15246041528434, 0.00021094, 3846.0225656584807
DataValue, 0.85000000000000009, 0, 0.00022934000000000002, 0.81984, 131.50780500566876, 0.00022934000000000002, 3574.7798029127057
DataValue, 0.86, 0, 0.00024754000000000003, 0.82719999999999994, 132.50383776359396, 0.00024754000000000003, 3341.6821523794129
DataValue, 0.87, 0, 0.00027032, 0.83312, 136.43089671500454, 0.00027032, 3081.9769162474104
DataValue, 0.88, 0, 0.00028752000000000004, 0.8408, 136.33834168057877, 0.00028752000000000004, 2924.3183082915966
DataValue, 0.89, 0, 0.0021856, 0.60756, 129.22767203513908, 0.0021856, 277.98316251830158
DataValue, 0.9, 0, 0.0019844, 0.65972, 121.08445877847211, 0.0019844, 332.45313444869987
DataValue, 0.91, 0, 0.0021764, 0.61724, 134.5157140231575, 0.0021764, 283.60595478772285
DataValue, 0.92, 0, 0.0021928, 0.6444, 125.68405691353524, 0.0021928, 293.87085005472454
DataValue, 0.93, 0, 0.0021822, 0.63728, 134.13985885803322, 0.0021822, 292.035560443589
DataValue, 0.94000000000000006, 0, 0.0023092, 0.63424, 132.40949246492292, 0.0023092, 274.65789017841678
DataValue, 0.95000000000000007, 0, 0.0022618, 0.64304, 135.71491732248657, 0.0022618, 284.30453621009815
DataValue, 0.96000000000000008, 0, 0.0023974, 0.64444, 131.62592808876286, 0.0023974, 268.80787519813128
DataValue, 0.97000000000000008, 0, 0.0024038, 0.65055999999999992, 132.88959148015647, 0.0024038, 270.63815625259997
DataValue, 0.98000000000000009, 0, 0.0025712, 0.62552, 137.86558805227136, 0.0025712, 243.27940261356562
DataValue, 0.9900000000000001, 0, 0.0023602000000000002, 0.66508, 137.66629946614697, 0.0023602000000000002, 281.78967884077616
DataValue, 1, 0, 0.0023642, 0.66364, 142.27222739192962, 0.0023642, 280.70383216309961
DataValue, 1.01, 0, 0.002283, 0.68972, 140.28909329829173, 0.002283, 302.11125711782745
DataValue, 1.02, 0, 0.0024152, 0.64544, 155.08446505465386, 0.0024152, 267.24080821464059
DataValue, 1.03, 0, 0.0026364, 0.62691999999999992, 152.8903049613109, 0.0026364, 237.79396146260046
DataValue, 1.04, 0, 0.0025464, 0.6134, 167.53063147973614, 0.0025464, 240.88909833490416
DataValue, 1.05, 0, 0.0024360000000000002, 0.60664, 182.00328407224961, 0.0024360000000000002, 249.03119868637106
DataValue, 1.06, 0, 0.0023924000000000003, 0.61152, 187.46029092125065, 0.0023924000000000003, 255.60942986122717
DataValue, 1.07, 0, 0.0023024, 0.62656, 192.59902710215431, 0.0023024, 272.133425990271
DataValue, 1.08, 0, 0.0022722000000000003, 0.64144, 193.01117859343367, 0.0022722000000000003, 282.29909338966638
DataValue, 1.09, 0, 0.002284, 0.64511999999999992, 194.78108581436084, 0.002284, 282.45183887915931
DataValue, 1.1, 0, 0.0022888, 0.63747999999999994, 202.07969241523949, 0.0022888, 278.52149598042638
DataValue, 1.11, 0, 0.0022044, 0.6574, 205.31663944837604, 0.0022044, 298.22173834149879
DataValue, 1.12, 0, 0.0023096, 0.64128, 207.27398683754768, 0.0023096, 277.65846899896081
DataValue, 1.1300000000000001, 0, 0.0021804, 0.6462, 221.88589249678964, 0.0021804, 296.3676389653275
DataValue, 1.1400000000000001, 0, 0.0021724, 0.65811999999999993, 221.81918615356295, 0.0021724, 302.94605045111393
DataValue, 1.1500000000000001, 0, 0.0021014000000000002, 0.65288, 236.56609879128203, 0.0021014000000000002, 310.68811268678024
DataValue, 1.1600000000000001, 0, 0.0020828, 0.63179999999999992, 253.60092183599011, 0.0020828, 303.3416554637987
DataValue, 1.1700000000000002, 0, 0.001948, 0.61227999999999994, 286.30390143737174, 0.001948, 314.312114989733
DataValue, 1.1800000000000002, 0, 0.001538, 0.47019999999999995, 461.50845253576085, 0.001538, 305.72171651495444
DataValue, 1.19, 0, 0.0015186, 0.41372, 511.18135124456734, 0.0015186, 272.4351376267615
DataValue, 1.2, 0, 0.001052, 0.40048, 760, 0.001052, 380.68441064638785
DataValue, 1.21, 0, 0.0010308000000000001, 0.37112, 813.81451299961179, 0.0010308000000000001, 360.03104384943731
DataValue, 1.22, 0, 0.00090456000000000011, 0.36891999999999997, 940.877332625807, 0.00090456000000000011, 407.84469797470587
DataValue, 1.23, 0, 0.0008622, 0.33708, 1035.6297842727904, 0.0008622, 390.95337508698674
DataValue, 1.24, 0, 0.00083720000000000008, 0.33276, 1083.6598184424272, 0.00083720000000000008, 397.46774964166264
DataValue, 1.25, 0, 0.00085102000000000008, 0.35187999999999997, 1055.3453502855396, 0.00085102000000000008, 413.48029423515305
DataValue, 1.26, 0, 0.00084122, 0.3452, 1087.4682009462447, 0.00084122, 410.35638715199349
DataValue, 1.27, 0, 0.00080468, 0.31867999999999996, 1182.2339315007209, 0.00080468, 396.0332057463836
