
SetupTitle, DualRESET
PrimitiveTest, I/V Sweep
TestParameter, Context.MainFrame, B1500A
TestParameter, Channel.UnitType, SMU, SMU, SMU
TestParameter, Channel.Unit, SMU2:MP, SMU4:MP, SMU1:MP
TestParameter, Channel.IName, Irow, Icol, Igate
TestParameter, Channel.VName, Vrow, Vcol, Vgate
TestParameter, Channel.Mode, V, V, I
TestParameter, Channel.Func, VAR1, CONST, CONST
TestParameter, Channel.Index, 
TestParameter, Channel.Time, 
TestParameter, Measurement.Port.Unit, SMU2:MP, SMU4:MP, SMU1:MP
TestParameter, Measurement.Port.SeriesResistor, NONE, NONE, NONE
TestParameter, Measurement.Port.Filter, ON, ON, ON
TestParameter, Measurement.Port.OutputVoltageComparison, 0, 0, 0
TestParameter, Measurement.Primary.Locus, Double
TestParameter, Measurement.Primary.Scale, LINEAR
TestParameter, Measurement.Primary.Start, 0
TestParameter, Measurement.Primary.Stop, 1.3
TestParameter, Measurement.Primary.Step, 0.01
TestParameter, Measurement.Primary.Compliance, 0.004
TestParameter, Measurement.Primary.PowerCompliance, 0
TestParameter, Measurement.Aborting.Condition, CONTINUE AT ANY
TestParameter, Measurement.PostOutput.Value, START
TestParameter, Measurement.PostOutput.Retention, OFF
TestParameter, Measurement.Bias.Source, 0, 0, 1E-13
TestParameter, Measurement.Bias.Compliance, 0.004, 0.1, 10
TestParameter, Measurement.Monitor.Unit, SMU2:MP, SMU4:MP, SMU1:MP
TestParameter, Measurement.Monitor.Adc, HR ADC, HR ADC, HR ADC
TestParameter, Measurement.Monitor.Measurement, Compliance Side, Compliance Side, Compliance Side
TestParameter, Measurement.Monitor.RangingMode, LIMITED, LIMITED, LIMITED
TestParameter, Measurement.Monitor.RangeBoundary, 1nA, 1nA, 2V
TestParameter, Measurement.Monitor.RangeRating, BY FULL RANGE, BY FULL RANGE
TestParameter, Measurement.Monitor.RangeRatingCoeff, 50, 50
TestParameter, Measurement.Timing.Hold, 0
TestParameter, Measurement.Timing.Delay, 0
TestParameter, Measurement.Adc.HighSpeed.Mode, AUTO
TestParameter, Measurement.Adc.HighSpeed.Coeff, 1
TestParameter, Measurement.Adc.HighResolution.AutoZero, OFF
TestParameter, Measurement.Adc.HighResolution.Mode, AUTO
TestParameter, Measurement.Adc.HighResolution.Coeff, 6
TestParameter, Measurement.WaitTime.Source.Coeff, 1
TestParameter, Measurement.WaitTime.Source.Offset, 0
TestParameter, Measurement.WaitTime.Monitor.Coeff, 1
TestParameter, Measurement.WaitTime.Monitor.Offset, 0
TestParameter, Function.User.Name, R2, absIrow, R1
TestParameter, Function.User.Unit, ohm, A, ohm
TestParameter, Function.User.Definition, abs((Vrow-Vgate)/Irow), abs(Irow), abs(Vgate/Irow)
TestParameter, Output.Graph.Enabled, true
TestParameter, Output.Graph.AutoScaling, false
TestParameter, Output.Graph.XAxis.Data, Vrow
TestParameter, Output.Graph.XAxis.Scale, Linear
TestParameter, Output.Graph.XAxis.Left, 0
TestParameter, Output.Graph.XAxis.Right, 1.5
TestParameter, Output.Graph.XAxis.RunTimeAutoScale, true
TestParameter, Output.Graph.YAxis.Data, absIrow, Vgate
TestParameter, Output.Graph.YAxis.Scale, Linear, Linear
TestParameter, Output.Graph.YAxis.Bottom, 0, -0.1
TestParameter, Output.Graph.YAxis.Top, 1, 0.1
TestParameter, Output.Graph.YAxis.Group, , 
TestParameter, Output.Graph.YAxis.RunTimeAutoScale, true, true
TestParameter, Output.List.Data, Vrow, Vcol, R1, R2, Vgate, Irow
TestParameter, AutoAnalysis.Interpolation, false
TestParameter, AutoAnalysis.Line1.Enabled, false
TestParameter, AutoAnalysis.Line1.Type, 1
TestParameter, AutoAnalysis.Line1.Fix, True
TestParameter, AutoAnalysis.Line1.YAxis, 0
TestParameter, AutoAnalysis.Line1.Point1.Type, 0
TestParameter, AutoAnalysis.Line1.Point1.XY.X, 
TestParameter, AutoAnalysis.Line1.Point1.XY.Y, 
TestParameter, AutoAnalysis.Line1.Point1.Data.Var, 
TestParameter, AutoAnalysis.Line1.Point1.Data.Condition, 
TestParameter, AutoAnalysis.Line1.Point1.Data.Start, false
TestParameter, AutoAnalysis.Line1.Point1.Data.StartVar, 
TestParameter, AutoAnalysis.Line1.Point1.Data.StartCondition, 
TestParameter, AutoAnalysis.Line1.Point2.Type, 0
TestParameter, AutoAnalysis.Line1.Point2.XY.X, 
TestParameter, AutoAnalysis.Line1.Point2.XY.Y, 
TestParameter, AutoAnalysis.Line1.Point2.Data.Var, 
TestParameter, AutoAnalysis.Line1.Point2.Data.Condition, 
TestParameter, AutoAnalysis.Line1.Point2.Data.Start, false
TestParameter, AutoAnalysis.Line1.Point2.Data.StartVar, 
TestParameter, AutoAnalysis.Line1.Point2.Data.StartCondition, 
TestParameter, AutoAnalysis.Line1.GradientExpr, 0
TestParameter, AutoAnalysis.Line2.Enabled, false
TestParameter, AutoAnalysis.Line2.Type, 1
TestParameter, AutoAnalysis.Line2.Fix, True
TestParameter, AutoAnalysis.Line2.YAxis, 0
TestParameter, AutoAnalysis.Line2.Point1.Type, 0
TestParameter, AutoAnalysis.Line2.Point1.XY.X, 
TestParameter, AutoAnalysis.Line2.Point1.XY.Y, 
TestParameter, AutoAnalysis.Line2.Point1.Data.Var, 
TestParameter, AutoAnalysis.Line2.Point1.Data.Condition, 
TestParameter, AutoAnalysis.Line2.Point1.Data.Start, false
TestParameter, AutoAnalysis.Line2.Point1.Data.StartVar, 
TestParameter, AutoAnalysis.Line2.Point1.Data.StartCondition, 
TestParameter, AutoAnalysis.Line2.Point2.Type, 0
TestParameter, AutoAnalysis.Line2.Point2.XY.X, 
TestParameter, AutoAnalysis.Line2.Point2.XY.Y, 
TestParameter, AutoAnalysis.Line2.Point2.Data.Var, 
TestParameter, AutoAnalysis.Line2.Point2.Data.Condition, 
TestParameter, AutoAnalysis.Line2.Point2.Data.Start, false
TestParameter, AutoAnalysis.Line2.Point2.Data.StartVar, 
TestParameter, AutoAnalysis.Line2.Point2.Data.StartCondition, 
TestParameter, AutoAnalysis.Line2.GradientExpr, 0
TestParameter, AutoAnalysis.Marker.Enabled, false
TestParameter, AutoAnalysis.Marker.Data.Var, 
TestParameter, AutoAnalysis.Marker.Data.Condition, 
TestParameter, AutoAnalysis.Marker.Data.Start, false
TestParameter, AutoAnalysis.Marker.Data.StartVar, 
TestParameter, AutoAnalysis.Marker.Data.StartCondition, 
MetaData, TestRecord.EntryPoint, true
MetaData, TestRecord.RecordTime, 03/21/2019 19:28:16
MetaData, TestRecord.TestTarget, 3,4
MetaData, TestRecord.IterationIndex, 1
MetaData, TestRecord.Preservation, true
MetaData, TestRecord.Flag, 
MetaData, TestRecord.Remarks, 
MetaData, TestRecord.LinkKey, 87b9c39e-ec4e-46ec-8b60-2a09ae801ace
Dimension1, 262, 262, 262, 262, 262, 262, 262
Dimension2, 1, 1, 1, 1, 1, 1, 1
DataName, Vrow, Vcol, Irow, Vgate, R2, absIrow, R1
DataValue, 0, 0, -7.9878000000000011E-10, 0, -0, 7.9878000000000011E-10, -0
DataValue, 0.01, 0, 6.0928E-07, 0.00856, 2363.4453781512611, 6.0928E-07, 14049.36974789916
DataValue, 0.02, 0, 1.2151E-06, 0.01724, 2271.4179902888668, 1.2151E-06, 14188.132663978271
DataValue, 0.030000000000000002, 0, 1.8274000000000003E-06, 0.02584, 2276.4583561344, 1.8274000000000003E-06, 14140.308635219435
DataValue, 0.04, 0, 2.4277E-06, 0.03448, 2273.7570540017318, 2.4277E-06, 14202.743337315153
DataValue, 0.05, 0, 3.0564000000000005E-06, 0.04296, 2303.3634341054849, 3.0564000000000005E-06, 14055.75186493914
DataValue, 0.060000000000000005, 0, 3.6650000000000005E-06, 0.051559999999999995, 2302.8649386084608, 3.6650000000000005E-06, 14068.212824010911
DataValue, 0.07, 0, 4.2932000000000007E-06, 0.060239999999999995, 2273.3625267865486, 4.2932000000000007E-06, 14031.491661231712
DataValue, 0.08, 0, 4.9238E-06, 0.068679999999999991, 2299.0373288923211, 4.9238E-06, 13948.576302855516
DataValue, 0.090000000000000011, 0, 5.5518000000000008E-06, 0.07728, 2291.1488166000231, 5.5518000000000008E-06, 13919.809791418998
DataValue, 0.1, 0, 6.2014000000000005E-06, 0.08584, 2283.3553713677566, 6.2014000000000005E-06, 13842.035669364981
DataValue, 0.11, 0, 6.8648000000000007E-06, 0.09432, 2284.1160703880664, 6.8648000000000007E-06, 13739.657382589441
DataValue, 0.12000000000000001, 0, 7.5415000000000006E-06, 0.10279999999999999, 2280.7133859311834, 7.5415000000000006E-06, 13631.240469402635
DataValue, 0.13, 0, 8.1922000000000009E-06, 0.11136, 2275.3350748272751, 8.1922000000000009E-06, 13593.418129440197
DataValue, 0.14, 0, 8.8755000000000017E-06, 0.11968, 2289.4484817756761, 8.8755000000000017E-06, 13484.310743056725
DataValue, 0.15, 0, 9.6199000000000008E-06, 0.12808, 2278.6099647605479, 9.6199000000000008E-06, 13314.067713801598
DataValue, 0.16, 0, 1.03646E-05, 0.13635999999999998, 2280.8405534222275, 1.03646E-05, 13156.320552650364
DataValue, 0.17, 0, 1.1128500000000002E-05, 0.14472, 2271.6448757694225, 1.1128500000000002E-05, 13004.448038819244
DataValue, 0.18000000000000002, 0, 1.1944000000000001E-05, 0.15292, 2267.2471533824528, 1.1944000000000001E-05, 12803.081044876088
DataValue, 0.19, 0, 1.271E-05, 0.16108, 2275.3737214791504, 1.271E-05, 12673.485444531865
DataValue, 0.2, 0, 1.3464E-05, 0.16932, 2278.6690433749268, 1.3464E-05, 12575.757575757576
DataValue, 0.21000000000000002, 0, 1.4398E-05, 0.17736, 2266.9815252118369, 1.4398E-05, 12318.377552437838
DataValue, 0.22, 0, 1.5268E-05, 0.18544, 2263.5577678805348, 1.5268E-05, 12145.664134136756
DataValue, 0.23, 0, 1.6152E-05, 0.19347999999999999, 2261.0203070827156, 1.6152E-05, 11978.70232788509
DataValue, 0.24000000000000002, 0, 1.6992E-05, 0.20104, 2292.8436911487775, 1.6992E-05, 11831.450094161959
DataValue, 0.25, 0, 1.8088E-05, 0.20931999999999998, 2249.0048651039374, 1.8088E-05, 11572.313135780627
DataValue, 0.26, 0, 1.9084000000000002E-05, 0.21716, 2244.8124083001471, 1.9084000000000002E-05, 11379.165793334729
DataValue, 0.27, 0, 2.0052E-05, 0.22508, 2240.1755435866753, 2.0052E-05, 11224.815479752642
DataValue, 0.28, 0, 2.1126E-05, 0.2324, 2253.1477799867475, 2.1126E-05, 11000.662690523524
DataValue, 0.29000000000000004, 0, 2.2264000000000002E-05, 0.24012, 2240.3880704275975, 2.2264000000000002E-05, 10785.123966942148
DataValue, 0.3, 0, 2.3146E-05, 0.24764, 2262.1619286269761, 2.3146E-05, 10699.040870992827
DataValue, 0.31, 0, 2.4238E-05, 0.25532, 2255.9617130126248, 2.4238E-05, 10533.872431718788
DataValue, 0.32, 0, 2.536E-05, 0.26316, 2241.3249211356465, 2.536E-05, 10376.971608832808
DataValue, 0.33, 0, 2.6660000000000002E-05, 0.27044, 2234.0585146286571, 2.6660000000000002E-05, 10144.03600900225
DataValue, 0.34, 0, 2.7746E-05, 0.27796, 2235.9979816910559, 2.7746E-05, 10018.020615584228
DataValue, 0.35000000000000003, 0, 2.9088E-05, 0.28512, 2230.4730473047321, 2.9088E-05, 9801.9801980198
DataValue, 0.36000000000000004, 0, 3.015E-05, 0.2924, 2242.1227197346616, 3.015E-05, 9698.1757877280252
DataValue, 0.37, 0, 3.1732E-05, 0.29924, 2229.9256271271897, 3.1732E-05, 9430.2281608470948
DataValue, 0.38, 0, 3.2816E-05, 0.30684, 2229.4002925402247, 3.2816E-05, 9350.3169185763054
DataValue, 0.39, 0, 3.4252000000000003E-05, 0.3136, 2230.5266845731639, 3.4252000000000003E-05, 9155.66974191288
DataValue, 0.4, 0, 3.553E-05, 0.32128, 2215.5924570785255, 3.553E-05, 9042.4992963692657
DataValue, 0.41000000000000003, 0, 3.7104E-05, 0.32808, 2207.8482104355339, 3.7104E-05, 8842.1733505821467
DataValue, 0.42000000000000004, 0, 3.8742E-05, 0.3346, 2204.3260544112341, 3.8742E-05, 8636.6217541686019
DataValue, 0.43, 0, 3.9822E-05, 0.34136, 2225.9052784892774, 3.9822E-05, 8572.1460499221539
DataValue, 0.44, 0, 4.2002E-05, 0.34772, 2197.0382362744635, 4.2002E-05, 8278.6533974572631
DataValue, 0.45, 0, 4.363E-05, 0.35484, 2181.0680724272293, 4.363E-05, 8132.9360531744205
DataValue, 0.46, 0, 4.5404E-05, 0.361, 2180.4246321909973, 4.5404E-05, 7950.8413355651483
DataValue, 0.47000000000000003, 0, 4.6914E-05, 0.36863999999999997, 2160.5490898239345, 4.6914E-05, 7857.7823251055115
DataValue, 0.48000000000000004, 0, 4.8102E-05, 0.37616, 2158.7459980873987, 4.8102E-05, 7820.0490624090471
DataValue, 0.49000000000000005, 0, 4.9876E-05, 0.3828, 2149.33033924132, 4.9876E-05, 7675.0340845296323
DataValue, 0.5, 0, 5.1538E-05, 0.38892, 2155.3028833094031, 5.1538E-05, 7546.2765338197059
DataValue, 0.51, 0, 5.3226E-05, 0.39532, 2154.5861045353777, 5.3226E-05, 7427.1972344342985
DataValue, 0.52, 0, 5.4884000000000005E-05, 0.40164, 2156.5483565337804, 5.4884000000000005E-05, 7317.9797390860713
DataValue, 0.53, 0, 5.7646000000000003E-05, 0.40708, 2132.3248794365613, 5.7646000000000003E-05, 7061.7215418242367
DataValue, 0.54, 0, 5.9612000000000005E-05, 0.41431999999999997, 2108.3003422129782, 5.9612000000000005E-05, 6950.2784674226659
DataValue, 0.55, 0, 6.127E-05, 0.4196, 2128.2846417496339, 6.127E-05, 6848.3760404765781
DataValue, 0.56, 0, 6.2948000000000008E-05, 0.42632, 2123.6576221643272, 6.2948000000000008E-05, 6772.5741882188458
DataValue, 0.57000000000000006, 0, 6.5098E-05, 0.43256, 2111.2783802881818, 6.5098E-05, 6644.7509908138491
DataValue, 0.58000000000000007, 0, 6.5592E-05, 0.44116, 2116.7215514087093, 6.5592E-05, 6725.82022197829
DataValue, 0.59000000000000008, 0, 6.7562E-05, 0.44716, 2114.2062105917539, 6.7562E-05, 6618.5133655013169
DataValue, 0.6, 0, 7.0254000000000009E-05, 0.45311999999999997, 2090.6994619523443, 7.0254000000000009E-05, 6449.7395166111528
DataValue, 0.61, 0, 7.224E-05, 0.45843999999999996, 2098.0066445182729, 7.224E-05, 6346.0686600221479
DataValue, 0.62, 0, 7.4748E-05, 0.46431999999999996, 2082.7313105367375, 7.4748E-05, 6211.80499812704
DataValue, 0.63, 0, 7.6748E-05, 0.46924, 2094.6474175222806, 7.6748E-05, 6114.0355449001927
DataValue, 0.64, 0, 7.9574000000000008E-05, 0.47619999999999996, 2058.4613064568834, 7.9574000000000008E-05, 5984.3667529595086
DataValue, 0.65, 0, 8.1324000000000009E-05, 0.48252, 2059.4166543701735, 8.1324000000000009E-05, 5933.3038217500361
DataValue, 0.66, 0, 8.3154E-05, 0.48888, 2057.8685330831959, 8.3154E-05, 5879.2120643625085
DataValue, 0.67, 0, 8.5492E-05, 0.49595999999999996, 2035.7460347166996, 8.5492E-05, 5801.2445608945864
DataValue, 0.68, 0, 8.7318E-05, 0.50108, 2049.06204906205, 8.7318E-05, 5738.5647861838333
DataValue, 0.69000000000000006, 0, 8.9068000000000008E-05, 0.50808, 2042.4843939461991, 8.9068000000000008E-05, 5704.4056226703187
DataValue, 0.70000000000000007, 0, 9.1664000000000009E-05, 0.51391999999999993, 2030.0226915692106, 9.1664000000000009E-05, 5606.5631000174535
DataValue, 0.71000000000000008, 0, 9.3488E-05, 0.52068, 2025.0727366079075, 9.3488E-05, 5569.48485367106
DataValue, 0.72000000000000008, 0, 9.6218E-05, 0.52635999999999994, 2012.5132511588283, 9.6218E-05, 5470.4940863455895
DataValue, 0.73, 0, 9.8516E-05, 0.53155999999999992, 2014.292094685128, 9.8516E-05, 5395.6717690527421
DataValue, 0.74, 0, 0.00010129, 0.53676, 2006.5159443182938, 0.00010129, 5299.239806496199
DataValue, 0.75, 0, 0.00010481600000000001, 0.5428, 1976.79743550603, 0.00010481600000000001, 5178.5986872233234
DataValue, 0.76, 0, 0.000105278, 0.54928, 2001.5577803529704, 0.000105278, 5217.4243431676132
DataValue, 0.77, 0, 0.000109418, 0.55276, 1985.413734486099, 0.000109418, 5051.8196274835955
DataValue, 0.78, 0, 0.00011172600000000001, 0.55931999999999993, 1975.1893024005162, 0.00011172600000000001, 5006.1758229955421
DataValue, 0.79, 0, 0.00011586, 0.56116, 1975.14241325738, 0.00011586, 4843.4317279475226
DataValue, 0.8, 0, 0.00011856, 0.56643999999999994, 1969.9730094466945, 0.00011856, 4777.6653171390008
DataValue, 0.81, 0, 0.00012156000000000001, 0.57136, 1963.1457716354069, 0.00012156000000000001, 4700.2303389272784
DataValue, 0.82000000000000006, 0, 0.0001262, 0.5744, 1946.1172741679875, 0.0001262, 4551.5055467511884
DataValue, 0.83000000000000007, 0, 0.00013026000000000002, 0.57919999999999994, 1925.3800092123454, 0.00013026000000000002, 4446.4916321203737
DataValue, 0.84000000000000008, 0, 0.00013554000000000002, 0.57884, 1926.8112734248193, 0.00013554000000000002, 4270.62121882839
DataValue, 0.85000000000000009, 0, 0.00013872, 0.585, 1910.3229527104968, 0.00013872, 4217.1280276816606
DataValue, 0.86, 0, 0.00014168, 0.5902, 1904.2913608131, 0.00014168, 4165.7255787690565
DataValue, 0.87, 0, 0.00014538000000000002, 0.5958, 1886.0916219562523, 0.00014538000000000002, 4098.2253404869989
DataValue, 0.88, 0, 0.00014918, 0.60056, 1873.1733476337311, 0.00014918, 4025.740715913661
DataValue, 0.89, 0, 0.00015212, 0.60708, 1859.8474888246126, 0.00015212, 3990.79673941625
DataValue, 0.9, 0, 0.00015692, 0.60956, 1850.879429008412, 0.00015692, 3884.5271475911291
DataValue, 0.91, 0, 0.00016154, 0.61388, 1833.1063513680824, 0.00016154, 3800.1733316825553
DataValue, 0.92, 0, 0.0001652, 0.62088, 1810.6537530266346, 0.0001652, 3758.3535108958836
DataValue, 0.93, 0, 0.00016690000000000002, 0.6258, 1822.6482923906531, 0.00016690000000000002, 3749.5506291192328
DataValue, 0.94000000000000006, 0, 0.00017476000000000001, 0.62659999999999993, 1793.3165484092476, 0.00017476000000000001, 3585.4886701762412
DataValue, 0.95000000000000007, 0, 0.00017810000000000002, 0.6314, 1788.8826501965193, 0.00017810000000000002, 3545.1993262212236
DataValue, 0.96000000000000008, 0, 0.00018248, 0.63491999999999993, 1781.4555019728198, 0.00018248, 3479.3950021920205
DataValue, 0.97000000000000008, 0, 0.00018846000000000002, 0.6432, 1734.0549718773218, 0.00018846000000000002, 3412.92581980261
DataValue, 0.98000000000000009, 0, 0.00019232, 0.64516, 1741.0565723793684, 0.00019232, 3354.6173044925122
DataValue, 0.9900000000000001, 0, 0.00019616000000000002, 0.64744, 1746.3295269168029, 0.00019616000000000002, 3300.5709624796082
DataValue, 1, 0, 0.00020286000000000002, 0.64816, 1734.3981070689147, 0.00020286000000000002, 3195.1099280291824
DataValue, 1.01, 0, 0.00021060000000000002, 0.65076, 1705.792972459639, 0.00021060000000000002, 3090.0284900284896
DataValue, 1.02, 0, 0.00021602, 0.6536, 1696.1392463660775, 0.00021602, 3025.645773539487
DataValue, 1.03, 0, 0.00023180000000000002, 0.64828, 1646.7644521138914, 0.00023180000000000002, 2796.7213114754095
DataValue, 1.04, 0, 0.00023814000000000002, 0.6502, 1636.8522717729068, 0.00023814000000000002, 2730.3266985806667
DataValue, 1.05, 0, 0.00024584, 0.65699999999999992, 1598.6007159127894, 0.00024584, 2672.4698991213795
DataValue, 1.06, 0, 0.00025242, 0.65872, 1589.73140004754, 0.00025242, 2609.6188891529987
DataValue, 1.07, 0, 0.00025944, 0.6574, 1590.3484427998769, 0.00025944, 2533.919210607462
DataValue, 1.08, 0, 0.00026904, 0.66176, 1554.5643770443057, 0.00026904, 2459.7085935176924
DataValue, 1.09, 0, 0.00027614, 0.66364, 1543.999420583762, 0.00027614, 2403.2737017454911
DataValue, 1.1, 0, 0.00028012, 0.6644, 1555.0478366414395, 0.00028012, 2371.8406397258314
DataValue, 1.11, 0, 0.00028652, 0.67199999999999993, 1528.6890967471734, 0.00028652, 2345.386011447717
DataValue, 1.12, 0, 0.00028684, 0.68008, 1533.6773113931115, 0.00028684, 2370.9385023009345
DataValue, 1.1300000000000001, 0, 0.0003056, 0.67664, 1483.5078534031418, 0.0003056, 2214.13612565445
DataValue, 1.1400000000000001, 0, 0.00030868000000000003, 0.68387999999999993, 1477.6467539199175, 0.00030868000000000003, 2215.4982506155238
DataValue, 1.1500000000000001, 0, 0.0003148, 0.68987999999999994, 1461.6264294790349, 0.0003148, 2191.4866581956794
DataValue, 1.1600000000000001, 0, 0.00031322, 0.69231999999999994, 1493.1358150820515, 0.00031322, 2210.33139646255
DataValue, 1.1700000000000002, 0, 0.00032166000000000003, 0.69696, 1470.6211527700059, 0.00032166000000000003, 2166.7599328483489
DataValue, 1.1800000000000002, 0, 0.0003282, 0.69696, 1471.7854966483856, 0.0003282, 2123.5831809872029
DataValue, 1.19, 0, 0.00034042, 0.7004, 1438.2233711297806, 0.00034042, 2057.4584336995476
DataValue, 1.2, 0, 0.00034490000000000004, 0.70944, 1422.325311684546, 0.00034490000000000004, 2056.9440417512319
DataValue, 1.21, 0, 0.00034098, 0.71612, 1448.4133966801571, 0.00034098, 2100.1818288462664
DataValue, 1.22, 0, 0.00035438, 0.7172, 1418.8159602686383, 0.00035438, 2023.8162424516054
DataValue, 1.23, 0, 0.00037382, 0.71248, 1384.4096089026803, 0.00037382, 1905.9440372371728
DataValue, 1.24, 0, 0.00038060000000000004, 0.7158, 1377.2990015764581, 0.00038060000000000004, 1880.7146610614816
DataValue, 1.25, 0, 0.000398, 0.70839999999999992, 1360.8040201005026, 0.000398, 1779.899497487437
