
SetupTitle, DualRESET
PrimitiveTest, I/V Sweep
TestParameter, Context.MainFrame, B1500A
TestParameter, Channel.UnitType, SMU, SMU, SMU
TestParameter, Channel.Unit, SMU2:MP, SMU4:MP, SMU1:MP
TestParameter, Channel.IName, Irow, Icol, Igate
TestParameter, Channel.VName, Vrow, Vcol, Vgate
TestParameter, Channel.Mode, V, V, I
TestParameter, Channel.Func, VAR1, CONST, CONST
TestParameter, Channel.Index, 
TestParameter, Channel.Time, 
TestParameter, Measurement.Port.Unit, SMU2:MP, SMU4:MP, SMU1:MP
TestParameter, Measurement.Port.SeriesResistor, NONE, NONE, NONE
TestParameter, Measurement.Port.Filter, ON, ON, ON
TestParameter, Measurement.Port.OutputVoltageComparison, 0, 0, 0
TestParameter, Measurement.Primary.Locus, Double
TestParameter, Measurement.Primary.Scale, LINEAR
TestParameter, Measurement.Primary.Start, 0
TestParameter, Measurement.Primary.Stop, 1.5
TestParameter, Measurement.Primary.Step, 0.01
TestParameter, Measurement.Primary.Compliance, 0.004
TestParameter, Measurement.Primary.PowerCompliance, 0
TestParameter, Measurement.Aborting.Condition, CONTINUE AT ANY
TestParameter, Measurement.PostOutput.Value, START
TestParameter, Measurement.PostOutput.Retention, OFF
TestParameter, Measurement.Bias.Source, 0, 0, 1E-13
TestParameter, Measurement.Bias.Compliance, 0.004, 0.1, 10
TestParameter, Measurement.Monitor.Unit, SMU2:MP, SMU4:MP, SMU1:MP
TestParameter, Measurement.Monitor.Adc, HR ADC, HR ADC, HR ADC
TestParameter, Measurement.Monitor.Measurement, Compliance Side, Compliance Side, Compliance Side
TestParameter, Measurement.Monitor.RangingMode, LIMITED, LIMITED, LIMITED
TestParameter, Measurement.Monitor.RangeBoundary, 1nA, 1nA, 2V
TestParameter, Measurement.Monitor.RangeRating, BY FULL RANGE, BY FULL RANGE
TestParameter, Measurement.Monitor.RangeRatingCoeff, 50, 50
TestParameter, Measurement.Timing.Hold, 0
TestParameter, Measurement.Timing.Delay, 0
TestParameter, Measurement.Adc.HighSpeed.Mode, AUTO
TestParameter, Measurement.Adc.HighSpeed.Coeff, 1
TestParameter, Measurement.Adc.HighResolution.AutoZero, OFF
TestParameter, Measurement.Adc.HighResolution.Mode, AUTO
TestParameter, Measurement.Adc.HighResolution.Coeff, 6
TestParameter, Measurement.WaitTime.Source.Coeff, 1
TestParameter, Measurement.WaitTime.Source.Offset, 0
TestParameter, Measurement.WaitTime.Monitor.Coeff, 1
TestParameter, Measurement.WaitTime.Monitor.Offset, 0
TestParameter, Function.User.Name, R2, absIrow, R1
TestParameter, Function.User.Unit, ohm, A, ohm
TestParameter, Function.User.Definition, abs((Vrow-Vgate)/Irow), abs(Irow), abs(Vgate/Irow)
TestParameter, Output.Graph.Enabled, true
TestParameter, Output.Graph.AutoScaling, false
TestParameter, Output.Graph.XAxis.Data, Vrow
TestParameter, Output.Graph.XAxis.Scale, Linear
TestParameter, Output.Graph.XAxis.Left, 0
TestParameter, Output.Graph.XAxis.Right, 1.5
TestParameter, Output.Graph.XAxis.RunTimeAutoScale, true
TestParameter, Output.Graph.YAxis.Data, absIrow, Vgate
TestParameter, Output.Graph.YAxis.Scale, Linear, Linear
TestParameter, Output.Graph.YAxis.Bottom, 0, -0.1
TestParameter, Output.Graph.YAxis.Top, 1, 0.1
TestParameter, Output.Graph.YAxis.Group, , 
TestParameter, Output.Graph.YAxis.RunTimeAutoScale, true, true
TestParameter, Output.List.Data, Vrow, Vcol, R1, R2, Vgate, Irow
TestParameter, AutoAnalysis.Interpolation, false
TestParameter, AutoAnalysis.Line1.Enabled, false
TestParameter, AutoAnalysis.Line1.Type, 1
TestParameter, AutoAnalysis.Line1.Fix, True
TestParameter, AutoAnalysis.Line1.YAxis, 0
TestParameter, AutoAnalysis.Line1.Point1.Type, 0
TestParameter, AutoAnalysis.Line1.Point1.XY.X, 
TestParameter, AutoAnalysis.Line1.Point1.XY.Y, 
TestParameter, AutoAnalysis.Line1.Point1.Data.Var, 
TestParameter, AutoAnalysis.Line1.Point1.Data.Condition, 
TestParameter, AutoAnalysis.Line1.Point1.Data.Start, false
TestParameter, AutoAnalysis.Line1.Point1.Data.StartVar, 
TestParameter, AutoAnalysis.Line1.Point1.Data.StartCondition, 
TestParameter, AutoAnalysis.Line1.Point2.Type, 0
TestParameter, AutoAnalysis.Line1.Point2.XY.X, 
TestParameter, AutoAnalysis.Line1.Point2.XY.Y, 
TestParameter, AutoAnalysis.Line1.Point2.Data.Var, 
TestParameter, AutoAnalysis.Line1.Point2.Data.Condition, 
TestParameter, AutoAnalysis.Line1.Point2.Data.Start, false
TestParameter, AutoAnalysis.Line1.Point2.Data.StartVar, 
TestParameter, AutoAnalysis.Line1.Point2.Data.StartCondition, 
TestParameter, AutoAnalysis.Line1.GradientExpr, 0
TestParameter, AutoAnalysis.Line2.Enabled, false
TestParameter, AutoAnalysis.Line2.Type, 1
TestParameter, AutoAnalysis.Line2.Fix, True
TestParameter, AutoAnalysis.Line2.YAxis, 0
TestParameter, AutoAnalysis.Line2.Point1.Type, 0
TestParameter, AutoAnalysis.Line2.Point1.XY.X, 
TestParameter, AutoAnalysis.Line2.Point1.XY.Y, 
TestParameter, AutoAnalysis.Line2.Point1.Data.Var, 
TestParameter, AutoAnalysis.Line2.Point1.Data.Condition, 
TestParameter, AutoAnalysis.Line2.Point1.Data.Start, false
TestParameter, AutoAnalysis.Line2.Point1.Data.StartVar, 
TestParameter, AutoAnalysis.Line2.Point1.Data.StartCondition, 
TestParameter, AutoAnalysis.Line2.Point2.Type, 0
TestParameter, AutoAnalysis.Line2.Point2.XY.X, 
TestParameter, AutoAnalysis.Line2.Point2.XY.Y, 
TestParameter, AutoAnalysis.Line2.Point2.Data.Var, 
TestParameter, AutoAnalysis.Line2.Point2.Data.Condition, 
TestParameter, AutoAnalysis.Line2.Point2.Data.Start, false
TestParameter, AutoAnalysis.Line2.Point2.Data.StartVar, 
TestParameter, AutoAnalysis.Line2.Point2.Data.StartCondition, 
TestParameter, AutoAnalysis.Line2.GradientExpr, 0
TestParameter, AutoAnalysis.Marker.Enabled, false
TestParameter, AutoAnalysis.Marker.Data.Var, 
TestParameter, AutoAnalysis.Marker.Data.Condition, 
TestParameter, AutoAnalysis.Marker.Data.Start, false
TestParameter, AutoAnalysis.Marker.Data.StartVar, 
TestParameter, AutoAnalysis.Marker.Data.StartCondition, 
MetaData, TestRecord.EntryPoint, true
MetaData, TestRecord.RecordTime, 03/21/2019 18:53:48
MetaData, TestRecord.TestTarget, 3,4
MetaData, TestRecord.IterationIndex, 2
MetaData, TestRecord.Preservation, true
MetaData, TestRecord.Flag, 
MetaData, TestRecord.Remarks, 1.5V
MetaData, TestRecord.LinkKey, d4b742f6-388f-4330-b3a9-d1488d2cca87
Dimension1, 302, 302, 302, 302, 302, 302, 302
Dimension2, 1, 1, 1, 1, 1, 1, 1
DataName, Vrow, Vcol, Irow, Vgate, R2, absIrow, R1
DataValue, 0, 0, -3.8917799999999994E-08, 7.9999999999999993E-05, 2055.6146544768717, 3.8917799999999994E-08, 2055.6146544768717
DataValue, 0.01, 0, 3.1686E-05, 0.0047599999999999995, 165.37271981316673, 3.1686E-05, 150.22407372341095
DataValue, 0.02, 0, 6.3648E-05, 0.0094, 166.54097536450479, 6.3648E-05, 147.68728004022123
DataValue, 0.030000000000000002, 0, 9.569E-05, 0.014079999999999999, 166.37057163757973, 9.569E-05, 147.141812101578
DataValue, 0.04, 0, 0.00012734, 0.01864, 167.73990890529291, 0.00012734, 146.37977069263388
DataValue, 0.05, 0, 0.00015938, 0.02336, 167.14769732714268, 0.00015938, 146.56795080938636
DataValue, 0.060000000000000005, 0, 0.00019112, 0.02804, 167.22478024277942, 0.00019112, 146.71410632063623
DataValue, 0.07, 0, 0.00022296000000000002, 0.032799999999999996, 166.84607104413351, 0.00022296000000000002, 147.11158952278433
DataValue, 0.08, 0, 0.00025514, 0.037399999999999996, 166.96715528729328, 0.00025514, 146.58618797522928
DataValue, 0.090000000000000011, 0, 0.00028686, 0.04208, 167.05012898277909, 0.00028686, 146.69176601826675
DataValue, 0.1, 0, 0.00031896, 0.046759999999999996, 166.91748181590171, 0.00031896, 146.60145472786553
DataValue, 0.11, 0, 0.0003507, 0.051399999999999994, 167.09438266324494, 0.0003507, 146.56401482748785
DataValue, 0.12000000000000001, 0, 0.00038272, 0.05608, 167.01505016722408, 0.00038272, 146.53010033444815
DataValue, 0.13, 0, 0.00041464000000000003, 0.0608, 166.89176152807255, 0.00041464000000000003, 146.63322400154351
DataValue, 0.14, 0, 0.00044656000000000003, 0.06552, 166.786098172698, 0.00044656000000000003, 146.72160515944103
DataValue, 0.15, 0, 0.00047870000000000003, 0.07016, 166.78504282431584, 0.00047870000000000003, 146.56360977647796
DataValue, 0.16, 0, 0.0005105, 0.07492, 166.66013712047013, 0.0005105, 146.75808031341822
DataValue, 0.17, 0, 0.00054238000000000008, 0.079559999999999992, 166.74656145138096, 0.00054238000000000008, 146.68682473542532
DataValue, 0.18000000000000002, 0, 0.00057444000000000006, 0.0842, 166.77111621753363, 0.00057444000000000006, 146.5775363832602
DataValue, 0.19, 0, 0.00060642, 0.08888, 166.74911777316052, 0.00060642, 146.56508690346624
DataValue, 0.2, 0, 0.00063826000000000009, 0.0936, 166.70322439131388, 0.00063826000000000009, 146.6487011562686
DataValue, 0.21000000000000002, 0, 0.00067052000000000008, 0.098359999999999989, 166.49764361987712, 0.00067052000000000008, 146.69211954900672
DataValue, 0.22, 0, 0.00070226, 0.10307999999999999, 166.491043203372, 0.00070226, 146.7832426736536
DataValue, 0.23, 0, 0.0007347, 0.10779999999999999, 166.32639172451343, 0.0007347, 146.72655505648564
DataValue, 0.24000000000000002, 0, 0.00076644000000000007, 0.11244, 166.43181462345387, 0.00076644000000000007, 146.70424299358069
DataValue, 0.25, 0, 0.0007984, 0.11716, 166.38276553106215, 0.0007984, 146.74348697394791
DataValue, 0.26, 0, 0.00083068000000000009, 0.12183999999999999, 166.32156787210477, 0.00083068000000000009, 146.67501324216303
DataValue, 0.27, 0, 0.00086288, 0.12647999999999998, 166.3267198219915, 0.00086288, 146.57889857222324
DataValue, 0.28, 0, 0.00089480000000000007, 0.13128, 166.20473848904783, 0.00089480000000000007, 146.71434957532409
DataValue, 0.29000000000000004, 0, 0.00092712, 0.13599999999999998, 166.10578997325055, 0.00092712, 146.69082750884456
DataValue, 0.3, 0, 0.00095906000000000008, 0.14071999999999998, 166.07928596750983, 0.00095906000000000008, 146.72700352428416
DataValue, 0.31, 0, 0.00099132, 0.1454, 166.04123794536577, 0.00099132, 146.67312270508009
DataValue, 0.32, 0, 0.00102348, 0.15016, 165.94364325634112, 0.00102348, 146.71512877633171
DataValue, 0.33, 0, 0.0010558400000000002, 0.1548, 165.93423245946354, 0.0010558400000000002, 146.61312320048489
DataValue, 0.34, 0, 0.00108792, 0.15955999999999998, 165.85778366056331, 0.00108792, 146.6651959702919
DataValue, 0.35000000000000003, 0, 0.00112004, 0.16432, 165.77979357880079, 0.00112004, 146.70904610549621
DataValue, 0.36000000000000004, 0, 0.001152, 0.16892, 165.8680555555556, 0.001152, 146.63194444444443
DataValue, 0.37, 0, 0.0011842, 0.17379999999999998, 165.681472724202, 0.0011842, 146.76574902888024
DataValue, 0.38, 0, 0.0012164, 0.17844, 165.70207168694509, 0.0012164, 146.69516606379477
DataValue, 0.39, 0, 0.0012490000000000001, 0.18316, 165.60448358686949, 0.0012490000000000001, 146.64531625300239
DataValue, 0.4, 0, 0.001281, 0.18792, 165.55815768930523, 0.001281, 146.69789227166277
DataValue, 0.41000000000000003, 0, 0.0013136, 0.1926, 165.49939098660173, 0.0013136, 146.61997563946406
DataValue, 0.42000000000000004, 0, 0.0013456, 0.19735999999999998, 165.45778834720576, 0.0013456, 146.6706302021403
DataValue, 0.43, 0, 0.001378, 0.20204, 165.42815674891145, 0.001378, 146.61828737300434
DataValue, 0.44, 0, 0.0014108, 0.20676, 165.32463850297702, 0.0014108, 146.55514601644455
DataValue, 0.45, 0, 0.001443, 0.21156, 165.23908523908526, 0.001443, 146.61122661122661
DataValue, 0.46, 0, 0.0014754, 0.2162, 165.24332384438119, 0.0014754, 146.536532465772
DataValue, 0.47000000000000003, 0, 0.0015078000000000001, 0.221, 165.14126541981696, 0.0015078000000000001, 146.57116328425519
DataValue, 0.48000000000000004, 0, 0.0015402, 0.22576, 165.06947149720816, 0.0015402, 146.57836644591612
DataValue, 0.49000000000000005, 0, 0.0015724, 0.23035999999999998, 165.12337827524809, 0.0015724, 146.50216229966927
DataValue, 0.5, 0, 0.001605, 0.23512, 165.03426791277258, 0.001605, 146.49221183800623
DataValue, 0.51, 0, 0.0016374, 0.23972, 165.06656895077563, 0.0016374, 146.40283376084034
DataValue, 0.52, 0, 0.0016702, 0.24459999999999998, 164.89043228355888, 0.0016702, 146.44952700275417
DataValue, 0.53, 0, 0.0017024, 0.24916, 164.96710526315792, 0.0017024, 146.35808270676691
DataValue, 0.54, 0, 0.0017354, 0.25395999999999996, 164.82655295609087, 0.0017354, 146.34090123314508
DataValue, 0.55, 0, 0.0017676, 0.25867999999999997, 164.81104322244855, 0.0017676, 146.34532699705812
DataValue, 0.56, 0, 0.0017998, 0.26344, 164.7738637626403, 0.0017998, 146.37181909101011
DataValue, 0.57000000000000006, 0, 0.0018324, 0.26816, 164.72385941934078, 0.0018324, 146.34359310194282
DataValue, 0.58000000000000007, 0, 0.0018644, 0.27292, 164.707144389616, 0.0018644, 146.38489594507615
DataValue, 0.59000000000000008, 0, 0.0018966, 0.27784, 164.58926500052732, 0.0018966, 146.49372561425707
DataValue, 0.6, 0, 0.0019294, 0.28259999999999996, 164.50710065305279, 0.0019294, 146.47040530734941
DataValue, 0.61, 0, 0.0019606, 0.28736, 164.56186881566867, 0.0019606, 146.56737733346935
DataValue, 0.62, 0, 0.0019924, 0.29228, 164.4850431640233, 0.0019924, 146.69745031118248
DataValue, 0.63, 0, 0.002025, 0.29712, 164.38518518518521, 0.002025, 146.72592592592594
DataValue, 0.64, 0, 0.0020564, 0.30207999999999996, 164.32600661349935, 0.0020564, 146.89749076055242
DataValue, 0.65, 0, 0.0020876000000000002, 0.30688, 164.36098869515232, 0.0020876000000000002, 147.00134125311359
DataValue, 0.66, 0, 0.0021186, 0.31179999999999997, 164.35381855942606, 0.0021186, 147.17266119135277
DataValue, 0.67, 0, 0.0021516, 0.31672, 164.19408812046851, 0.0021516, 147.20208217140731
DataValue, 0.68, 0, 0.0021824, 0.3216, 164.22287390029328, 0.0021824, 147.3607038123167
DataValue, 0.69000000000000006, 0, 0.0022144, 0.3262, 164.28829479768788, 0.0022144, 147.30852601156067
DataValue, 0.70000000000000007, 0, 0.0022464, 0.33111999999999997, 164.20940170940176, 0.0022464, 147.4002849002849
DataValue, 0.71000000000000008, 0, 0.002278, 0.33604, 164.161545215101, 0.002278, 147.51536435469711
DataValue, 0.72000000000000008, 0, 0.0023086, 0.34092, 164.20341332409257, 0.0023086, 147.67391492679545
DataValue, 0.73, 0, 0.002341, 0.34587999999999997, 164.08372490388723, 0.002341, 147.74882528833828
DataValue, 0.74, 0, 0.0023724, 0.35064, 164.12072163210249, 0.0023724, 147.79969650986342
DataValue, 0.75, 0, 0.002404, 0.35547999999999996, 164.10981697171383, 0.002404, 147.87021630615641
DataValue, 0.76, 0, 0.0024366, 0.36016, 164.09751292785029, 0.0024366, 147.81252565049658
DataValue, 0.77, 0, 0.0024676, 0.36519999999999997, 164.04603663478687, 0.0024676, 147.99805479007941
DataValue, 0.78, 0, 0.0025004, 0.37012, 163.92577187649977, 0.0025004, 148.0243161094225
DataValue, 0.79, 0, 0.0025322, 0.37488, 163.93649790695838, 0.0025322, 148.04517810599478
DataValue, 0.8, 0, 0.0025626, 0.37967999999999996, 164.0209162569266, 0.0025626, 148.162022945446
DataValue, 0.81, 0, 0.0025946, 0.38467999999999997, 163.92507515609347, 0.0025946, 148.26177445463654
DataValue, 0.82000000000000006, 0, 0.0026266, 0.38976, 163.80111170334274, 0.0026266, 148.38955303434096
DataValue, 0.83000000000000007, 0, 0.002659, 0.39464, 163.73072583678078, 0.002659, 148.41669800676945
DataValue, 0.84000000000000008, 0, 0.0026898, 0.3994, 163.80400029741992, 0.0026898, 148.48687634768385
DataValue, 0.85000000000000009, 0, 0.0027218, 0.40408, 163.83275773385265, 0.0027218, 148.46057755896834
DataValue, 0.86, 0, 0.0027528, 0.40903999999999996, 163.81865736704447, 0.0027528, 148.59052600988082
DataValue, 0.87, 0, 0.0027838, 0.4138, 163.87671528127021, 0.0027838, 148.64573604425607
DataValue, 0.88, 0, 0.0028158000000000002, 0.41859999999999997, 163.86106967824418, 0.0028158000000000002, 148.66112650046165
DataValue, 0.89, 0, 0.0028466, 0.42372, 163.80243097028034, 0.0028466, 148.851261153657
DataValue, 0.9, 0, 0.0028784, 0.42844, 163.82712618121178, 0.0028784, 148.84658143413006
DataValue, 0.91, 0, 0.0029096, 0.43351999999999996, 163.76134176519111, 0.0029096, 148.99642562551551
DataValue, 0.92, 0, 0.0029394, 0.43811999999999995, 163.93821868408523, 0.0029394, 149.05082669932637
DataValue, 0.93, 0, 0.0029728000000000003, 0.4432, 163.751345532831, 0.0029728000000000003, 149.08503767491925
DataValue, 0.94000000000000006, 0, 0.0030022, 0.4476, 164.01305709146627, 0.0030022, 149.09066684431417
DataValue, 0.95000000000000007, 0, 0.0030356000000000003, 0.45276, 163.80287257873238, 0.0030356000000000003, 149.1500856502833
DataValue, 0.96000000000000008, 0, 0.003065, 0.4576, 163.91517128874389, 0.003065, 149.29853181076672
DataValue, 0.97000000000000008, 0, 0.0030968000000000002, 0.46268, 163.82071816068202, 0.0030968000000000002, 149.40583828468095
DataValue, 0.98000000000000009, 0, 0.0031306, 0.46728, 163.77691177410082, 0.0031306, 149.26212227687984
DataValue, 0.9900000000000001, 0, 0.0031598, 0.47215999999999997, 163.88379011329835, 0.0031598, 149.42717893537565
DataValue, 1, 0, 0.0031902000000000002, 0.47703999999999996, 163.92702651871358, 0.0031902000000000002, 149.53294464296906
DataValue, 1.01, 0, 0.003223, 0.48212, 163.78529320508844, 0.003223, 149.58734098665838
DataValue, 1.02, 0, 0.0032546, 0.48679999999999995, 163.82965648620419, 0.0032546, 149.57291218582927
DataValue, 1.03, 0, 0.0032846, 0.49204, 163.78250015222554, 0.0032846, 149.802106801437
DataValue, 1.04, 0, 0.0033166000000000003, 0.49667999999999995, 163.81836820840618, 0.0033166000000000003, 149.75577398540671
DataValue, 1.05, 0, 0.0033476, 0.5012, 163.9383438881587, 0.0033476, 149.71920181622653
DataValue, 1.06, 0, 0.0033804, 0.50632, 163.79126730564431, 0.0033804, 149.7810909951485
DataValue, 1.07, 0, 0.003409, 0.51108, 163.9542387797008, 0.003409, 149.92079788794368
DataValue, 1.08, 0, 0.0034378, 0.51591999999999993, 164.08168014427835, 0.0034378, 150.0727209261737
DataValue, 1.09, 0, 0.0034702, 0.52088, 164.00207480836841, 0.0034702, 150.10085874013026
DataValue, 1.1, 0, 0.0035024, 0.5256, 164.00182731841028, 0.0035024, 150.06852444038373
DataValue, 1.11, 0, 0.003533, 0.5306, 163.99660345315598, 0.003533, 150.18397962071893
DataValue, 1.12, 0, 0.0035678, 0.53528, 163.88811032008525, 0.0035678, 150.03083132462581
DataValue, 1.1300000000000001, 0, 0.0035956, 0.54088, 163.84469907664925, 0.0035956, 150.42830125709202
DataValue, 1.1400000000000001, 0, 0.0036216, 0.54611999999999994, 163.9827700463884, 0.0036216, 150.7952286282306
DataValue, 1.1500000000000001, 0, 0.0036512000000000003, 0.55064, 164.15425065731816, 0.0036512000000000003, 150.81069237510954
DataValue, 1.1600000000000001, 0, 0.0036848000000000002, 0.5558, 163.970907511941, 0.0036848000000000002, 150.83586626139817
DataValue, 1.1700000000000002, 0, 0.0037228, 0.55987999999999993, 163.887396583217, 0.0037228, 150.39217793058987
DataValue, 1.1800000000000002, 0, 0.0037528, 0.56512, 163.84566190577706, 0.0037528, 150.58622894905136
DataValue, 1.19, 0, 0.00378, 0.56912, 164.25396825396825, 0.00378, 150.56084656084656
DataValue, 1.2, 0, 0.0038092, 0.57319999999999993, 164.54898666386643, 0.0038092, 150.47779061220203
DataValue, 1.21, 0, 0.003835, 0.57804, 164.78748370273794, 0.003835, 150.72750977835725
DataValue, 1.22, 0, 0.003866, 0.58292, 164.79048111743404, 0.003866, 150.78116916709777
DataValue, 1.23, 0, 0.0038914, 0.58812, 164.94834763838207, 0.0038914, 151.13326823251271
DataValue, 1.24, 0, 0.0039236, 0.59356, 164.75685594861861, 0.0039236, 151.27943725150371
DataValue, 1.25, 0, 0.0039608, 0.59656, 164.97677236921834, 0.0039608, 150.61603716420922
DataValue, 1.26, 0, 0.0039832, 0.60212, 165.16368748744728, 0.0039832, 151.16489254870456
DataValue, 1.27, 0, 0.0040004, 0.60504, 166.22337766223376, 0.0040004, 151.24487551244874
DataValue, 1.28, 0, 0.0040004, 0.60539999999999994, 168.63313668633137, 0.0040004, 151.33486651334863
DataValue, 1.29, 0, 0.0040006, 0.60571999999999993, 171.04434334849776, 0.0040006, 151.40728890666398
DataValue, 1.3, 0, 0.0040006, 0.60832, 172.89406589011651, 0.0040006, 152.0571914212868
