
SetupTitle, DualSET
PrimitiveTest, I/V Sweep
TestParameter, Context.MainFrame, B1500A
TestParameter, Channel.UnitType, SMU, SMU, SMU
TestParameter, Channel.Unit, SMU4:MP, SMU2:MP, SMU1:MP
TestParameter, Channel.IName, Irow, Icol, Igate
TestParameter, Channel.VName, Vrow, Vcol, Vgate
TestParameter, Channel.Mode, V, V, I
TestParameter, Channel.Func, VAR1, CONST, CONST
TestParameter, Channel.Index, 
TestParameter, Channel.Time, 
TestParameter, Measurement.Port.Unit, SMU4:MP, SMU2:MP, SMU1:MP
TestParameter, Measurement.Port.SeriesResistor, NONE, NONE, NONE
TestParameter, Measurement.Port.Filter, ON, ON, ON
TestParameter, Measurement.Port.OutputVoltageComparison, 0, 0, 0
TestParameter, Measurement.Primary.Locus, Double
TestParameter, Measurement.Primary.Scale, LINEAR
TestParameter, Measurement.Primary.Start, 0
TestParameter, Measurement.Primary.Stop, 1.3
TestParameter, Measurement.Primary.Step, 0.01
TestParameter, Measurement.Primary.Compliance, 0.004
TestParameter, Measurement.Primary.PowerCompliance, 0
TestParameter, Measurement.Aborting.Condition, CONTINUE AT ANY
TestParameter, Measurement.PostOutput.Value, START
TestParameter, Measurement.PostOutput.Retention, OFF
TestParameter, Measurement.Bias.Source, 0, 0, 1E-13
TestParameter, Measurement.Bias.Compliance, 0.004, 0.1, 10
TestParameter, Measurement.Monitor.Unit, SMU4:MP, SMU2:MP, SMU1:MP
TestParameter, Measurement.Monitor.Adc, HR ADC, HR ADC, HR ADC
TestParameter, Measurement.Monitor.Measurement, Compliance Side, Compliance Side, Compliance Side
TestParameter, Measurement.Monitor.RangingMode, LIMITED, LIMITED, LIMITED
TestParameter, Measurement.Monitor.RangeBoundary, 1nA, 1nA, 2V
TestParameter, Measurement.Monitor.RangeRating, BY FULL RANGE, BY FULL RANGE
TestParameter, Measurement.Monitor.RangeRatingCoeff, 50, 50
TestParameter, Measurement.Timing.Hold, 0
TestParameter, Measurement.Timing.Delay, 0
TestParameter, Measurement.Adc.HighSpeed.Mode, AUTO
TestParameter, Measurement.Adc.HighSpeed.Coeff, 1
TestParameter, Measurement.Adc.HighResolution.AutoZero, OFF
TestParameter, Measurement.Adc.HighResolution.Mode, AUTO
TestParameter, Measurement.Adc.HighResolution.Coeff, 6
TestParameter, Measurement.WaitTime.Source.Coeff, 1
TestParameter, Measurement.WaitTime.Source.Offset, 0
TestParameter, Measurement.WaitTime.Monitor.Coeff, 1
TestParameter, Measurement.WaitTime.Monitor.Offset, 0
TestParameter, Function.User.Name, R1, absIrow, R2
TestParameter, Function.User.Unit, ohm, A, ohm
TestParameter, Function.User.Definition, abs((Vrow-Vgate)/Irow), abs(Irow), abs(Vgate/Irow)
TestParameter, Output.Graph.Enabled, true
TestParameter, Output.Graph.AutoScaling, false
TestParameter, Output.Graph.XAxis.Data, Vrow
TestParameter, Output.Graph.XAxis.Scale, Linear
TestParameter, Output.Graph.XAxis.Left, 0
TestParameter, Output.Graph.XAxis.Right, 1.5
TestParameter, Output.Graph.XAxis.RunTimeAutoScale, true
TestParameter, Output.Graph.YAxis.Data, absIrow, Vgate
TestParameter, Output.Graph.YAxis.Scale, Linear, Linear
TestParameter, Output.Graph.YAxis.Bottom, 0, -0.1
TestParameter, Output.Graph.YAxis.Top, 1, 0.1
TestParameter, Output.Graph.YAxis.Group, , 
TestParameter, Output.Graph.YAxis.RunTimeAutoScale, true, true
TestParameter, Output.List.Data, Vrow, Vcol, R1, R2, Vgate, Irow
TestParameter, AutoAnalysis.Interpolation, false
TestParameter, AutoAnalysis.Line1.Enabled, false
TestParameter, AutoAnalysis.Line1.Type, 1
TestParameter, AutoAnalysis.Line1.Fix, True
TestParameter, AutoAnalysis.Line1.YAxis, 0
TestParameter, AutoAnalysis.Line1.Point1.Type, 0
TestParameter, AutoAnalysis.Line1.Point1.XY.X, 
TestParameter, AutoAnalysis.Line1.Point1.XY.Y, 
TestParameter, AutoAnalysis.Line1.Point1.Data.Var, 
TestParameter, AutoAnalysis.Line1.Point1.Data.Condition, 
TestParameter, AutoAnalysis.Line1.Point1.Data.Start, false
TestParameter, AutoAnalysis.Line1.Point1.Data.StartVar, 
TestParameter, AutoAnalysis.Line1.Point1.Data.StartCondition, 
TestParameter, AutoAnalysis.Line1.Point2.Type, 0
TestParameter, AutoAnalysis.Line1.Point2.XY.X, 
TestParameter, AutoAnalysis.Line1.Point2.XY.Y, 
TestParameter, AutoAnalysis.Line1.Point2.Data.Var, 
TestParameter, AutoAnalysis.Line1.Point2.Data.Condition, 
TestParameter, AutoAnalysis.Line1.Point2.Data.Start, false
TestParameter, AutoAnalysis.Line1.Point2.Data.StartVar, 
TestParameter, AutoAnalysis.Line1.Point2.Data.StartCondition, 
TestParameter, AutoAnalysis.Line1.GradientExpr, 0
TestParameter, AutoAnalysis.Line2.Enabled, false
TestParameter, AutoAnalysis.Line2.Type, 1
TestParameter, AutoAnalysis.Line2.Fix, True
TestParameter, AutoAnalysis.Line2.YAxis, 0
TestParameter, AutoAnalysis.Line2.Point1.Type, 0
TestParameter, AutoAnalysis.Line2.Point1.XY.X, 
TestParameter, AutoAnalysis.Line2.Point1.XY.Y, 
TestParameter, AutoAnalysis.Line2.Point1.Data.Var, 
TestParameter, AutoAnalysis.Line2.Point1.Data.Condition, 
TestParameter, AutoAnalysis.Line2.Point1.Data.Start, false
TestParameter, AutoAnalysis.Line2.Point1.Data.StartVar, 
TestParameter, AutoAnalysis.Line2.Point1.Data.StartCondition, 
TestParameter, AutoAnalysis.Line2.Point2.Type, 0
TestParameter, AutoAnalysis.Line2.Point2.XY.X, 
TestParameter, AutoAnalysis.Line2.Point2.XY.Y, 
TestParameter, AutoAnalysis.Line2.Point2.Data.Var, 
TestParameter, AutoAnalysis.Line2.Point2.Data.Condition, 
TestParameter, AutoAnalysis.Line2.Point2.Data.Start, false
TestParameter, AutoAnalysis.Line2.Point2.Data.StartVar, 
TestParameter, AutoAnalysis.Line2.Point2.Data.StartCondition, 
TestParameter, AutoAnalysis.Line2.GradientExpr, 0
TestParameter, AutoAnalysis.Marker.Enabled, false
TestParameter, AutoAnalysis.Marker.Data.Var, 
TestParameter, AutoAnalysis.Marker.Data.Condition, 
TestParameter, AutoAnalysis.Marker.Data.Start, false
TestParameter, AutoAnalysis.Marker.Data.StartVar, 
TestParameter, AutoAnalysis.Marker.Data.StartCondition, 
MetaData, TestRecord.EntryPoint, true
MetaData, TestRecord.RecordTime, 03/21/2019 18:23:32
MetaData, TestRecord.TestTarget, 3,4
MetaData, TestRecord.IterationIndex, 1
MetaData, TestRecord.Preservation, true
MetaData, TestRecord.Flag, 
MetaData, TestRecord.Remarks, 
MetaData, TestRecord.LinkKey, 295b089d-ea06-4600-a387-8c0b70d13225
Dimension1, 262, 262, 262, 262, 262, 262, 262
Dimension2, 1, 1, 1, 1, 1, 1, 1
DataName, Vrow, Vcol, Irow, Vgate, R1, absIrow, R2
DataValue, 0, 0, 2.1434E-09, 3.9999999999999996E-05, 18661.93897545955, 2.1434E-09, 18661.93897545955
DataValue, 0.01, 0, 7.2789999999999995E-07, 0.0036, 8792.4165407336186, 7.2789999999999995E-07, 4945.73430416266
DataValue, 0.02, 0, 1.4596000000000002E-06, 0.0072, 8769.5258975061661, 1.4596000000000002E-06, 4932.858317347218
DataValue, 0.030000000000000002, 0, 2.1769000000000003E-06, 0.01064, 8893.3804951995953, 2.1769000000000003E-06, 4887.6843217419264
DataValue, 0.04, 0, 2.9164E-06, 0.01424, 8832.8075709779187, 2.9164E-06, 4882.7321355095319
DataValue, 0.05, 0, 3.6141000000000003E-06, 0.01764, 8953.81976148972, 3.6141000000000003E-06, 4880.8832074375359
DataValue, 0.060000000000000005, 0, 4.3639000000000007E-06, 0.02132, 8863.63115561768, 4.3639000000000007E-06, 4885.5381654025059
DataValue, 0.07, 0, 5.0796000000000005E-06, 0.024999999999999998, 8858.9652728561323, 5.0796000000000005E-06, 4921.6473738089608
DataValue, 0.08, 0, 5.819600000000001E-06, 0.02828, 8887.2087428689247, 5.819600000000001E-06, 4859.440511375351
DataValue, 0.090000000000000011, 0, 6.5533000000000004E-06, 0.03188, 8868.8141852196622, 6.5533000000000004E-06, 4864.7246425465028
DataValue, 0.1, 0, 7.2956000000000009E-06, 0.03556, 8832.7210921651385, 7.2956000000000009E-06, 4874.1707330445743
DataValue, 0.11, 0, 8.0140000000000015E-06, 0.03884, 8879.4609433491369, 8.0140000000000015E-06, 4846.5185924631887
DataValue, 0.12000000000000001, 0, 8.7610000000000013E-06, 0.042679999999999996, 8825.4765437735423, 8.7610000000000013E-06, 4871.5900011414205
DataValue, 0.13, 0, 9.4609000000000012E-06, 0.0462, 8857.50827088332, 9.4609000000000012E-06, 4883.2563498187264
DataValue, 0.14, 0, 1.02548E-05, 0.04996, 8780.2785037250851, 1.02548E-05, 4871.8648827865973
DataValue, 0.15, 0, 1.1044100000000002E-05, 0.053439999999999994, 8743.1298159198122, 1.1044100000000002E-05, 4838.7826984543772
DataValue, 0.16, 0, 1.1750000000000001E-05, 0.05644, 8813.6170212765956, 1.1750000000000001E-05, 4803.4042553191484
DataValue, 0.17, 0, 1.25E-05, 0.060399999999999995, 8768.0000000000018, 1.25E-05, 4831.9999999999991
DataValue, 0.18000000000000002, 0, 1.327E-05, 0.06396, 8744.53654860588, 1.327E-05, 4819.8944988696312
DataValue, 0.19, 0, 1.399E-05, 0.06767999999999999, 8743.3881343817029, 1.399E-05, 4837.7412437455323
DataValue, 0.2, 0, 1.4806E-05, 0.07116, 8701.8776171822246, 1.4806E-05, 4806.159665000675
DataValue, 0.21000000000000002, 0, 1.5588E-05, 0.07476, 8675.9045419553513, 1.5588E-05, 4795.9969207082368
DataValue, 0.22, 0, 1.6298000000000002E-05, 0.07823999999999999, 8697.9997545711121, 1.6298000000000002E-05, 4800.5890293287512
DataValue, 0.23, 0, 1.7122E-05, 0.081919999999999993, 8648.52236888214, 1.7122E-05, 4784.48779348207
DataValue, 0.24000000000000002, 0, 1.7872E-05, 0.08576, 8630.2596239928389, 1.7872E-05, 4798.5675917636527
DataValue, 0.25, 0, 1.8704E-05, 0.0894, 8586.3986313088117, 1.8704E-05, 4779.72626176219
DataValue, 0.26, 0, 1.947E-05, 0.09268, 8593.7339496661534, 1.947E-05, 4760.1438109912679
DataValue, 0.27, 0, 2.036E-05, 0.096279999999999991, 8532.4165029469568, 2.036E-05, 4728.8801571709228
DataValue, 0.28, 0, 2.1052E-05, 0.099679999999999991, 8565.4569637089116, 2.1052E-05, 4734.9420482614469
DataValue, 0.29000000000000004, 0, 2.1774000000000002E-05, 0.10339999999999999, 8569.8539542573726, 2.1774000000000002E-05, 4748.7829521447593
DataValue, 0.3, 0, 2.2590000000000002E-05, 0.10664, 8559.5396193005727, 2.2590000000000002E-05, 4720.6728640991587
DataValue, 0.31, 0, 2.341E-05, 0.11016, 8536.5228534814178, 2.341E-05, 4705.6813327637756
DataValue, 0.32, 0, 2.4194000000000002E-05, 0.11348, 8536.000661320988, 2.4194000000000002E-05, 4690.4191121765725
DataValue, 0.33, 0, 2.5106E-05, 0.11784, 8450.56958495977, 2.5106E-05, 4693.6987174380629
DataValue, 0.34, 0, 2.5916E-05, 0.12104, 8448.834696712458, 2.5916E-05, 4670.4738385553319
DataValue, 0.35000000000000003, 0, 2.6762000000000002E-05, 0.12487999999999999, 8411.9273596891126, 2.6762000000000002E-05, 4666.317913459382
DataValue, 0.36000000000000004, 0, 2.761E-05, 0.12836, 8389.7138717855851, 2.761E-05, 4649.0402028250628
DataValue, 0.37, 0, 2.8358000000000002E-05, 0.13236, 8379.99858946329, 2.8358000000000002E-05, 4667.46597080189
DataValue, 0.38, 0, 2.9140000000000002E-05, 0.13604, 8371.9972546328063, 2.9140000000000002E-05, 4668.4969114619071
DataValue, 0.39, 0, 2.9836E-05, 0.13932, 8401.9305536935244, 2.9836E-05, 4669.5267462126294
DataValue, 0.4, 0, 3.0764E-05, 0.14176, 8394.2270185931611, 3.0764E-05, 4607.9833571707195
DataValue, 0.41000000000000003, 0, 3.155E-05, 0.146, 8367.6703645007929, 3.155E-05, 4627.5752773375589
DataValue, 0.42000000000000004, 0, 3.235E-05, 0.14948, 8362.2874806800628, 3.235E-05, 4620.7109737248838
DataValue, 0.43, 0, 3.3234E-05, 0.15316, 8330.02346994042, 3.3234E-05, 4608.5334296202682
DataValue, 0.44, 0, 3.4072E-05, 0.15572, 8343.5078656961723, 3.4072E-05, 4570.3216717539326
DataValue, 0.45, 0, 3.5168E-05, 0.16152, 8202.9117379435847, 3.5168E-05, 4592.8116469517745
DataValue, 0.46, 0, 3.5614E-05, 0.16412, 8307.9687763239181, 3.5614E-05, 4608.3001066996121
DataValue, 0.47000000000000003, 0, 3.6692E-05, 0.16771999999999998, 8238.3080780551627, 3.6692E-05, 4571.0236563828621
DataValue, 0.48000000000000004, 0, 3.7558E-05, 0.17156, 8212.364875658981, 3.7558E-05, 4567.8683635976349
DataValue, 0.49000000000000005, 0, 3.8396E-05, 0.1744, 8219.6062089801035, 3.8396E-05, 4542.1398062298149
DataValue, 0.5, 0, 3.9348000000000003E-05, 0.17659999999999998, 8218.969197926197, 3.9348000000000003E-05, 4488.1569584222825
DataValue, 0.51, 0, 3.998E-05, 0.18056, 8240.1200600300144, 3.998E-05, 4516.2581290645321
DataValue, 0.52, 0, 4.1154E-05, 0.1846, 8149.8760752296266, 4.1154E-05, 4485.590708072119
DataValue, 0.53, 0, 4.1898000000000004E-05, 0.1886, 8148.3603035944434, 4.1898000000000004E-05, 4501.4081817747856
DataValue, 0.54, 0, 4.2866E-05, 0.1934, 8085.6622964587323, 4.2866E-05, 4511.7342415900712
DataValue, 0.55, 0, 4.3778E-05, 0.19599999999999998, 8086.2533692722391, 4.3778E-05, 4477.1346338343456
DataValue, 0.56, 0, 4.4894E-05, 0.19912, 8038.4906669042648, 4.4894E-05, 4435.3365705884971
DataValue, 0.57000000000000006, 0, 4.584E-05, 0.20332, 7999.1273996509608, 4.584E-05, 4435.42757417103
DataValue, 0.58000000000000007, 0, 4.6708E-05, 0.20756, 7973.794639034, 4.6708E-05, 4443.7783677314374
DataValue, 0.59000000000000008, 0, 4.782E-05, 0.21015999999999999, 7943.1200334588057, 4.782E-05, 4394.8138854035969
DataValue, 0.6, 0, 4.8320000000000005E-05, 0.2152, 7963.5761589403965, 4.8320000000000005E-05, 4453.6423841059595
DataValue, 0.61, 0, 4.9774E-05, 0.21911999999999998, 7853.0959938923934, 4.9774E-05, 4402.298388717
DataValue, 0.62, 0, 5.0704E-05, 0.22164, 7856.5793625749448, 5.0704E-05, 4371.2527611233827
DataValue, 0.63, 0, 5.1122E-05, 0.22532, 7915.9657290403356, 5.1122E-05, 4407.495794374242
DataValue, 0.64, 0, 5.2492000000000005E-05, 0.23099999999999998, 7791.6634915796694, 5.2492000000000005E-05, 4400.6705783738471
DataValue, 0.65, 0, 5.3344E-05, 0.23348, 7808.1883623275344, 5.3344E-05, 4376.8746250749846
DataValue, 0.66, 0, 5.4566E-05, 0.23728, 7746.9486493420818, 5.4566E-05, 4348.4954000659754
DataValue, 0.67, 0, 5.5534E-05, 0.23792, 7780.4588180213923, 5.5534E-05, 4284.2222782439585
DataValue, 0.68, 0, 5.6098000000000004E-05, 0.24552, 7745.017647687976, 5.6098000000000004E-05, 4376.62661770473
DataValue, 0.69000000000000006, 0, 5.7694E-05, 0.24831999999999999, 7655.5621035116319, 5.7694E-05, 4304.0870801123165
DataValue, 0.70000000000000007, 0, 5.7928000000000005E-05, 0.24783999999999998, 7805.5517193757778, 5.7928000000000005E-05, 4278.4145836210464
DataValue, 0.71000000000000008, 0, 5.8886000000000005E-05, 0.2544, 7736.98332371022, 5.8886000000000005E-05, 4320.21193492511
DataValue, 0.72000000000000008, 0, 5.9748000000000005E-05, 0.25795999999999997, 7733.1458793599795, 5.9748000000000005E-05, 4317.4666934458046
DataValue, 0.73, 0, 6.1034000000000006E-05, 0.26452, 7626.5687977193038, 6.1034000000000006E-05, 4333.9777828751185
DataValue, 0.74, 0, 6.2188000000000008E-05, 0.26844, 7582.8134045153392, 6.2188000000000008E-05, 4316.5884093394216
DataValue, 0.75, 0, 6.4172000000000008E-05, 0.27368, 7422.5518917908112, 6.4172000000000008E-05, 4264.7883812254559
DataValue, 0.76, 0, 6.5256E-05, 0.27984, 7358.0973397082262, 6.5256E-05, 4288.3413019492455
DataValue, 0.77, 0, 6.6094000000000008E-05, 0.28068, 7403.3951644627341, 6.6094000000000008E-05, 4246.6789723726806
DataValue, 0.78, 0, 6.6746E-05, 0.28484, 7418.5718994396675, 6.6746E-05, 4267.5216492374075
DataValue, 0.79, 0, 6.886E-05, 0.28731999999999996, 7300.02904443799, 6.886E-05, 4172.5239616613417
DataValue, 0.8, 0, 6.8712E-05, 0.28992, 7423.44859704273, 6.8712E-05, 4219.3503318197691
DataValue, 0.81, 0, 7.02E-05, 0.296, 7321.9373219373219, 7.02E-05, 4216.5242165242162
DataValue, 0.82000000000000006, 0, 7.0938E-05, 0.29632, 7382.2210944768685, 7.0938E-05, 4177.1687952860239
DataValue, 0.83000000000000007, 0, 7.2212E-05, 0.30008, 7338.39251094001, 7.2212E-05, 4155.5420151775324
DataValue, 0.84000000000000008, 0, 7.3652E-05, 0.30448, 7270.9498723727811, 7.3652E-05, 4134.0357356215709
DataValue, 0.85000000000000009, 0, 7.4236E-05, 0.30676, 7317.7434128994046, 7.4236E-05, 4132.2269518831836
DataValue, 0.86, 0, 7.5550000000000007E-05, 0.31172, 7257.1806750496353, 7.5550000000000007E-05, 4126.0092653871607
DataValue, 0.87, 0, 7.6224000000000007E-05, 0.3186, 7233.9420654911828, 7.6224000000000007E-05, 4179.7858942065486
DataValue, 0.88, 0, 7.7512E-05, 0.32044, 7219.0112498709886, 7.7512E-05, 4134.0695634224376
DataValue, 0.89, 0, 7.8982E-05, 0.32552, 7146.9448735154856, 7.8982E-05, 4121.4453926211036
DataValue, 0.9, 0, 7.9698000000000008E-05, 0.32964, 7156.5158473236461, 7.9698000000000008E-05, 4136.1138297071438
DataValue, 0.91, 0, 8.1258E-05, 0.32755999999999996, 7167.7865564006015, 8.1258E-05, 4031.110782938295
DataValue, 0.92, 0, 8.15E-05, 0.33627999999999997, 7162.2085889570553, 8.15E-05, 4126.1349693251532
DataValue, 0.93, 0, 8.2974000000000009E-05, 0.33936, 7118.374430544508, 8.2974000000000009E-05, 4089.9558897968031
DataValue, 0.94000000000000006, 0, 8.389E-05, 0.33848, 7170.3421146739784, 8.389E-05, 4034.8074859935632
DataValue, 0.95000000000000007, 0, 8.5494E-05, 0.34759999999999996, 7046.1084988420243, 8.5494E-05, 4065.782394086134
DataValue, 0.96000000000000008, 0, 8.6958E-05, 0.35259999999999997, 6984.9812553186612, 8.6958E-05, 4054.8310678718458
DataValue, 0.97000000000000008, 0, 8.8172000000000009E-05, 0.35584, 6965.476568525155, 8.8172000000000009E-05, 4035.7483101211265
DataValue, 0.98000000000000009, 0, 8.9266000000000009E-05, 0.35647999999999996, 6984.9662805547468, 8.9266000000000009E-05, 3993.4577554724074
DataValue, 0.9900000000000001, 0, 9.0468E-05, 0.36075999999999997, 6955.3875403457587, 9.0468E-05, 3987.7083609674137
DataValue, 1, 0, 9.187E-05, 0.36404, 6922.390334167847, 9.187E-05, 3962.5557853488622
DataValue, 1.01, 0, 9.377200000000001E-05, 0.36476, 6880.9452715096186, 9.377200000000001E-05, 3889.8605127330111
DataValue, 1.02, 0, 9.5406E-05, 0.36716, 6842.7562207827605, 9.5406E-05, 3848.3952791229062
DataValue, 1.03, 0, 9.5836000000000009E-05, 0.37212, 6864.6437664343248, 9.5836000000000009E-05, 3882.8832589006215
DataValue, 1.04, 0, 9.779600000000001E-05, 0.3752, 6797.8240418831037, 9.779600000000001E-05, 3836.5577324225933
DataValue, 1.05, 0, 9.901E-05, 0.37732, 6794.061205938794, 9.901E-05, 3810.9281890718107
DataValue, 1.06, 0, 9.9414000000000007E-05, 0.37923999999999997, 6847.7276842295851, 9.9414000000000007E-05, 3814.7544611422932
DataValue, 1.07, 0, 0.00010151000000000001, 0.38288, 6768.9882770170425, 0.00010151000000000001, 3771.8451384100085
DataValue, 1.08, 0, 0.000102254, 0.38744, 6772.9379779764122, 0.000102254, 3788.9960294951788
DataValue, 1.09, 0, 0.000102578, 0.39332, 6791.7097233324885, 0.000102578, 3834.3504455146326
DataValue, 1.1, 0, 0.000105246, 0.39039999999999997, 6742.298994736143, 0.000105246, 3709.4046329551716
DataValue, 1.11, 0, 0.00010851800000000001, 0.39415999999999995, 6596.5093348568907, 0.00010851800000000001, 3632.2084815422318
DataValue, 1.12, 0, 0.000108682, 0.39452, 6675.2544119541426, 0.000108682, 3630.0399330155865
DataValue, 1.1300000000000001, 0, 0.00010991600000000001, 0.39715999999999996, 6667.2731904363345, 0.00010991600000000001, 3613.3047054114045
DataValue, 1.1400000000000001, 0, 0.000111866, 0.39987999999999996, 6616.1300126937595, 0.000111866, 3574.6339370318055
DataValue, 1.1500000000000001, 0, 0.000112862, 0.39932, 6651.308677854372, 0.000112862, 3538.1262072265245
DataValue, 1.1600000000000001, 0, 0.00011934, 0.38388, 6503.4355622590929, 0.00011934, 3216.6918049270989
DataValue, 1.1700000000000002, 0, 0.0001211, 0.3886, 6452.5185796862106, 0.0001211, 3208.918249380677
DataValue, 1.1800000000000002, 0, 0.00012254, 0.39143999999999995, 6435.1232250693665, 0.00012254, 3194.3855067732979
DataValue, 1.19, 0, 0.00012706000000000002, 0.41464, 6102.3138674641887, 0.00012706000000000002, 3263.3401542578304
DataValue, 1.2, 0, 0.00013702, 0.40215999999999996, 5822.79959130054, 0.00013702, 2935.045978689242
DataValue, 1.21, 0, 0.00014294, 0.40903999999999996, 5603.4699874073031, 0.00014294, 2861.6202602490553
DataValue, 1.22, 0, 0.00014458, 0.39683999999999997, 5693.4569096693867, 0.00014458, 2744.7779775902613
DataValue, 1.23, 0, 0.00014394, 0.41631999999999997, 5652.9109351118514, 0.00014394, 2892.3162428789769
