
SetupTitle, DualSET
PrimitiveTest, I/V Sweep
TestParameter, Context.MainFrame, B1500A
TestParameter, Channel.UnitType, SMU, SMU, SMU
TestParameter, Channel.Unit, SMU4:MP, SMU2:MP, SMU1:MP
TestParameter, Channel.IName, Irow, Icol, Igate
TestParameter, Channel.VName, Vrow, Vcol, Vgate
TestParameter, Channel.Mode, V, V, I
TestParameter, Channel.Func, VAR1, CONST, CONST
TestParameter, Channel.Index, 
TestParameter, Channel.Time, 
TestParameter, Measurement.Port.Unit, SMU4:MP, SMU2:MP, SMU1:MP
TestParameter, Measurement.Port.SeriesResistor, NONE, NONE, NONE
TestParameter, Measurement.Port.Filter, ON, ON, ON
TestParameter, Measurement.Port.OutputVoltageComparison, 0, 0, 0
TestParameter, Measurement.Primary.Locus, Double
TestParameter, Measurement.Primary.Scale, LINEAR
TestParameter, Measurement.Primary.Start, 0
TestParameter, Measurement.Primary.Stop, 1.3
TestParameter, Measurement.Primary.Step, 0.01
TestParameter, Measurement.Primary.Compliance, 0.004
TestParameter, Measurement.Primary.PowerCompliance, 0
TestParameter, Measurement.Aborting.Condition, CONTINUE AT ANY
TestParameter, Measurement.PostOutput.Value, START
TestParameter, Measurement.PostOutput.Retention, OFF
TestParameter, Measurement.Bias.Source, 0, 0, 1E-13
TestParameter, Measurement.Bias.Compliance, 0.004, 0.1, 10
TestParameter, Measurement.Monitor.Unit, SMU4:MP, SMU2:MP, SMU1:MP
TestParameter, Measurement.Monitor.Adc, HR ADC, HR ADC, HR ADC
TestParameter, Measurement.Monitor.Measurement, Compliance Side, Compliance Side, Compliance Side
TestParameter, Measurement.Monitor.RangingMode, LIMITED, LIMITED, LIMITED
TestParameter, Measurement.Monitor.RangeBoundary, 1nA, 1nA, 2V
TestParameter, Measurement.Monitor.RangeRating, BY FULL RANGE, BY FULL RANGE
TestParameter, Measurement.Monitor.RangeRatingCoeff, 50, 50
TestParameter, Measurement.Timing.Hold, 0
TestParameter, Measurement.Timing.Delay, 0
TestParameter, Measurement.Adc.HighSpeed.Mode, AUTO
TestParameter, Measurement.Adc.HighSpeed.Coeff, 1
TestParameter, Measurement.Adc.HighResolution.AutoZero, OFF
TestParameter, Measurement.Adc.HighResolution.Mode, AUTO
TestParameter, Measurement.Adc.HighResolution.Coeff, 6
TestParameter, Measurement.WaitTime.Source.Coeff, 1
TestParameter, Measurement.WaitTime.Source.Offset, 0
TestParameter, Measurement.WaitTime.Monitor.Coeff, 1
TestParameter, Measurement.WaitTime.Monitor.Offset, 0
TestParameter, Function.User.Name, R1, absIrow, R2
TestParameter, Function.User.Unit, ohm, A, ohm
TestParameter, Function.User.Definition, abs((Vrow-Vgate)/Irow), abs(Irow), abs(Vgate/Irow)
TestParameter, Output.Graph.Enabled, true
TestParameter, Output.Graph.AutoScaling, false
TestParameter, Output.Graph.XAxis.Data, Vrow
TestParameter, Output.Graph.XAxis.Scale, Linear
TestParameter, Output.Graph.XAxis.Left, 0
TestParameter, Output.Graph.XAxis.Right, 1.5
TestParameter, Output.Graph.XAxis.RunTimeAutoScale, true
TestParameter, Output.Graph.YAxis.Data, absIrow, Vgate
TestParameter, Output.Graph.YAxis.Scale, Linear, Linear
TestParameter, Output.Graph.YAxis.Bottom, 0, -0.1
TestParameter, Output.Graph.YAxis.Top, 1, 0.1
TestParameter, Output.Graph.YAxis.Group, , 
TestParameter, Output.Graph.YAxis.RunTimeAutoScale, true, true
TestParameter, Output.List.Data, Vrow, Vcol, R1, R2, Vgate, Irow
TestParameter, AutoAnalysis.Interpolation, false
TestParameter, AutoAnalysis.Line1.Enabled, false
TestParameter, AutoAnalysis.Line1.Type, 1
TestParameter, AutoAnalysis.Line1.Fix, True
TestParameter, AutoAnalysis.Line1.YAxis, 0
TestParameter, AutoAnalysis.Line1.Point1.Type, 0
TestParameter, AutoAnalysis.Line1.Point1.XY.X, 
TestParameter, AutoAnalysis.Line1.Point1.XY.Y, 
TestParameter, AutoAnalysis.Line1.Point1.Data.Var, 
TestParameter, AutoAnalysis.Line1.Point1.Data.Condition, 
TestParameter, AutoAnalysis.Line1.Point1.Data.Start, false
TestParameter, AutoAnalysis.Line1.Point1.Data.StartVar, 
TestParameter, AutoAnalysis.Line1.Point1.Data.StartCondition, 
TestParameter, AutoAnalysis.Line1.Point2.Type, 0
TestParameter, AutoAnalysis.Line1.Point2.XY.X, 
TestParameter, AutoAnalysis.Line1.Point2.XY.Y, 
TestParameter, AutoAnalysis.Line1.Point2.Data.Var, 
TestParameter, AutoAnalysis.Line1.Point2.Data.Condition, 
TestParameter, AutoAnalysis.Line1.Point2.Data.Start, false
TestParameter, AutoAnalysis.Line1.Point2.Data.StartVar, 
TestParameter, AutoAnalysis.Line1.Point2.Data.StartCondition, 
TestParameter, AutoAnalysis.Line1.GradientExpr, 0
TestParameter, AutoAnalysis.Line2.Enabled, false
TestParameter, AutoAnalysis.Line2.Type, 1
TestParameter, AutoAnalysis.Line2.Fix, True
TestParameter, AutoAnalysis.Line2.YAxis, 0
TestParameter, AutoAnalysis.Line2.Point1.Type, 0
TestParameter, AutoAnalysis.Line2.Point1.XY.X, 
TestParameter, AutoAnalysis.Line2.Point1.XY.Y, 
TestParameter, AutoAnalysis.Line2.Point1.Data.Var, 
TestParameter, AutoAnalysis.Line2.Point1.Data.Condition, 
TestParameter, AutoAnalysis.Line2.Point1.Data.Start, false
TestParameter, AutoAnalysis.Line2.Point1.Data.StartVar, 
TestParameter, AutoAnalysis.Line2.Point1.Data.StartCondition, 
TestParameter, AutoAnalysis.Line2.Point2.Type, 0
TestParameter, AutoAnalysis.Line2.Point2.XY.X, 
TestParameter, AutoAnalysis.Line2.Point2.XY.Y, 
TestParameter, AutoAnalysis.Line2.Point2.Data.Var, 
TestParameter, AutoAnalysis.Line2.Point2.Data.Condition, 
TestParameter, AutoAnalysis.Line2.Point2.Data.Start, false
TestParameter, AutoAnalysis.Line2.Point2.Data.StartVar, 
TestParameter, AutoAnalysis.Line2.Point2.Data.StartCondition, 
TestParameter, AutoAnalysis.Line2.GradientExpr, 0
TestParameter, AutoAnalysis.Marker.Enabled, false
TestParameter, AutoAnalysis.Marker.Data.Var, 
TestParameter, AutoAnalysis.Marker.Data.Condition, 
TestParameter, AutoAnalysis.Marker.Data.Start, false
TestParameter, AutoAnalysis.Marker.Data.StartVar, 
TestParameter, AutoAnalysis.Marker.Data.StartCondition, 
MetaData, TestRecord.EntryPoint, true
MetaData, TestRecord.RecordTime, 03/21/2019 18:58:46
MetaData, TestRecord.TestTarget, 3,4
MetaData, TestRecord.IterationIndex, 1
MetaData, TestRecord.Preservation, true
MetaData, TestRecord.Flag, 
MetaData, TestRecord.Remarks, 
MetaData, TestRecord.LinkKey, 0c07c7bc-a20d-4c2c-ae9d-e29d0dfda14f
Dimension1, 262, 262, 262, 262, 262, 262, 262
Dimension2, 1, 1, 1, 1, 1, 1, 1
DataName, Vrow, Vcol, Irow, Vgate, R1, absIrow, R2
DataValue, 0, 0, 1.07384E-06, 0.00015999999999999999, 148.99798852715486, 1.07384E-06, 148.99798852715486
DataValue, 0.01, 0, 3.0622E-05, 0.0056, 143.68754490235779, 3.0622E-05, 182.87505714845537
DataValue, 0.02, 0, 6.1362E-05, 0.01112, 144.71497017698252, 6.1362E-05, 181.21964733874384
DataValue, 0.030000000000000002, 0, 9.1702E-05, 0.01664, 145.68929794333826, 9.1702E-05, 181.45732917493621
DataValue, 0.04, 0, 0.00012256000000000002, 0.02216, 145.56135770234985, 0.00012256000000000002, 180.80939947780675
DataValue, 0.05, 0, 0.00015284, 0.02768, 146.03506935357237, 0.00015284, 181.10442292593561
DataValue, 0.060000000000000005, 0, 0.00018342, 0.03324, 145.89466797513904, 0.00018342, 181.22342165521752
DataValue, 0.07, 0, 0.00021378, 0.03872, 146.31864533632711, 0.00021378, 181.12077837028718
DataValue, 0.08, 0, 0.0002442, 0.04428, 146.27354627354626, 0.0002442, 181.32678132678132
DataValue, 0.090000000000000011, 0, 0.0002749, 0.04972, 146.52600945798474, 0.0002749, 180.86576937068023
DataValue, 0.1, 0, 0.00030504, 0.055279999999999996, 146.60372410175717, 0.00030504, 181.22213480199315
DataValue, 0.11, 0, 0.00033584, 0.06084, 146.37922820390662, 0.00033584, 181.1576941400667
DataValue, 0.12000000000000001, 0, 0.0003662, 0.06631999999999999, 146.58656471873297, 0.0003662, 181.10322228290548
DataValue, 0.13, 0, 0.000397, 0.07188, 146.39798488664988, 0.000397, 181.05793450881612
DataValue, 0.14, 0, 0.00042732, 0.07736, 146.58803706823929, 0.00042732, 181.03528971262753
DataValue, 0.15, 0, 0.00045788000000000003, 0.08299999999999999, 146.32654844063947, 0.00045788000000000003, 181.27020179959811
DataValue, 0.16, 0, 0.00048808000000000006, 0.088439999999999991, 146.61530896574334, 0.00048808000000000006, 181.1998033109326
DataValue, 0.17, 0, 0.00051882, 0.09404, 146.40915924598127, 0.00051882, 181.25746887167031
DataValue, 0.18000000000000002, 0, 0.00054928000000000008, 0.09952, 146.51907952228373, 0.00054928000000000008, 181.18263909117388
DataValue, 0.19, 0, 0.0005797, 0.10507999999999999, 146.48956356736244, 0.0005797, 181.26617215801275
DataValue, 0.2, 0, 0.00061008, 0.11059999999999999, 146.53815892997642, 0.00061008, 181.2876999737739
DataValue, 0.21000000000000002, 0, 0.00064072, 0.1162, 146.39780247221879, 0.00064072, 181.35847171931576
DataValue, 0.22, 0, 0.00067118000000000006, 0.12168, 146.48827438243094, 0.00067118000000000006, 181.29264876784168
DataValue, 0.23, 0, 0.00070148000000000009, 0.12728, 146.4332554028625, 0.00070148000000000009, 181.44494497348461
DataValue, 0.24000000000000002, 0, 0.0007320400000000001, 0.1328, 146.44008524124365, 0.0007320400000000001, 181.41085186601822
DataValue, 0.25, 0, 0.0007627, 0.13835999999999998, 146.37472138455487, 0.0007627, 181.40815523797033
DataValue, 0.26, 0, 0.00079292, 0.14387999999999998, 146.44604752055696, 0.00079292, 181.45588457851989
DataValue, 0.27, 0, 0.00082358000000000008, 0.14944, 146.38529347482941, 0.00082358000000000008, 181.45171082347795
DataValue, 0.28, 0, 0.0008537000000000001, 0.15492, 146.51516926320724, 0.0008537000000000001, 181.468900081996
DataValue, 0.29000000000000004, 0, 0.00088444, 0.16055999999999998, 146.35249423363942, 0.00088444, 181.5386006964859
DataValue, 0.3, 0, 0.00091446000000000008, 0.16604, 146.4908251864488, 0.00091446000000000008, 181.57163790652405
DataValue, 0.31, 0, 0.0009451, 0.17168, 146.35488308115544, 0.0009451, 181.65273516030049
DataValue, 0.32, 0, 0.0009753400000000001, 0.1772, 146.4104824984108, 0.0009753400000000001, 181.68023458486269
DataValue, 0.33, 0, 0.00100602, 0.18275999999999998, 146.35891930577924, 0.00100602, 181.66636846185958
DataValue, 0.34, 0, 0.0010364600000000001, 0.18836, 146.305694382803, 0.0010364600000000001, 181.73397912123957
DataValue, 0.35000000000000003, 0, 0.0010666, 0.1938, 146.44665291580728, 0.0010666, 181.69885617851116
DataValue, 0.36000000000000004, 0, 0.0010966600000000002, 0.19948, 146.37171046632506, 0.0010966600000000002, 181.89776229642729
DataValue, 0.37, 0, 0.0011277000000000001, 0.20507999999999999, 146.24456859093729, 0.0011277000000000001, 181.85687682894383
DataValue, 0.38, 0, 0.0011592, 0.21084, 145.92822636300897, 0.0011592, 181.8840579710145
DataValue, 0.39, 0, 0.0011894, 0.21631999999999999, 146.02320497729951, 0.0011894, 181.87321338489994
DataValue, 0.4, 0, 0.00122, 0.22196, 145.93442622950823, 0.00122, 181.93442622950821
DataValue, 0.41000000000000003, 0, 0.0012502, 0.22744, 146.02463605823073, 0.0012502, 181.92289233722605
DataValue, 0.42000000000000004, 0, 0.0012806, 0.23304, 145.99406528189914, 0.0012806, 181.97719818834921
DataValue, 0.43, 0, 0.001311, 0.23872, 145.90389016018307, 0.001311, 182.09000762776503
DataValue, 0.44, 0, 0.0013412, 0.2442, 145.98866686549357, 0.0013412, 182.07575305696389
DataValue, 0.45, 0, 0.0013718, 0.2498, 145.93964134713517, 0.0013718, 182.09651552704474
DataValue, 0.46, 0, 0.001402, 0.25548, 145.87731811697577, 0.001402, 182.22539229671895
DataValue, 0.47000000000000003, 0, 0.0014312, 0.26083999999999996, 146.14309670206822, 0.0014312, 182.25265511458912
DataValue, 0.48000000000000004, 0, 0.0014622, 0.26648, 146.02653535768022, 0.0014622, 182.24593078922172
DataValue, 0.49000000000000005, 0, 0.001493, 0.27212, 145.93436034829207, 0.001493, 182.2638981915606
DataValue, 0.5, 0, 0.0015232, 0.27776, 145.90336134453781, 0.0015232, 182.35294117647061
DataValue, 0.51, 0, 0.0015542, 0.2834, 145.79848153390813, 0.0015542, 182.34461459271651
DataValue, 0.52, 0, 0.0015840000000000001, 0.28892, 145.88383838383837, 0.0015840000000000001, 182.3989898989899
DataValue, 0.53, 0, 0.001614, 0.29456, 145.87360594795541, 0.001614, 182.50309789343245
DataValue, 0.54, 0, 0.0016454, 0.30028, 145.69101738179168, 0.0016454, 182.49665734775738
DataValue, 0.55, 0, 0.0016758, 0.30576, 145.74531567012772, 0.0016758, 182.45614035087718
DataValue, 0.56, 0, 0.0017064, 0.31148, 145.63994374120961, 0.0017064, 182.53633380215658
DataValue, 0.57000000000000006, 0, 0.001737, 0.31712, 145.58434081750147, 0.001737, 182.56764536557282
DataValue, 0.58000000000000007, 0, 0.0017682, 0.32304, 145.32292727067079, 0.0017682, 182.69426535459789
DataValue, 0.59000000000000008, 0, 0.0017968, 0.32836, 145.61442564559221, 0.0017968, 182.74710596616205
DataValue, 0.6, 0, 0.0018278, 0.3342, 145.42072436809278, 0.0018278, 182.8427617901302
DataValue, 0.61, 0, 0.0018576, 0.33964, 145.54263565891472, 0.0018576, 182.83807062876829
DataValue, 0.62, 0, 0.0018882, 0.34536, 145.45069378243829, 0.0018882, 182.90435335239911
DataValue, 0.63, 0, 0.0019192, 0.35119999999999996, 145.26886202584413, 0.0019192, 182.99291371404749
DataValue, 0.64, 0, 0.0019488, 0.35696, 145.23809523809524, 0.0019488, 183.16912972085385
DataValue, 0.65, 0, 0.0019788, 0.36263999999999996, 145.21932484333942, 0.0019788, 183.26258338386899
DataValue, 0.66, 0, 0.0020112, 0.36844, 144.96817820206846, 0.0020112, 183.19411296738267
DataValue, 0.67, 0, 0.0020436, 0.37456, 144.56840869054611, 0.0020436, 183.2844000782932
DataValue, 0.68, 0, 0.0020748, 0.38016, 144.51513398881824, 0.0020748, 183.22729901677272
DataValue, 0.69000000000000006, 0, 0.0021034, 0.38608, 144.48987353808124, 0.0021034, 183.55044214129504
DataValue, 0.70000000000000007, 0, 0.0021392, 0.39236, 143.81077038145105, 0.0021392, 183.41436050860133
DataValue, 0.71000000000000008, 0, 0.0021684, 0.39827999999999997, 143.75576461907403, 0.0021684, 183.67459878251245
DataValue, 0.72000000000000008, 0, 0.002199, 0.40399999999999997, 143.70168258299233, 0.002199, 183.71987266939516
DataValue, 0.73, 0, 0.0022308000000000002, 0.41028, 143.32078178232024, 0.0022308000000000002, 183.91608391608389
DataValue, 0.74, 0, 0.0022622000000000002, 0.41591999999999996, 143.25877464415171, 0.0022622000000000002, 183.85642295110949
DataValue, 0.75, 0, 0.0022938, 0.42207999999999996, 142.9592815415468, 0.0022938, 184.00906792222511
DataValue, 0.76, 0, 0.0023268, 0.42835999999999996, 142.53051401065844, 0.0023268, 184.09833247378373
DataValue, 0.77, 0, 0.0023546, 0.43392, 142.73337297205472, 0.0023546, 184.28607831478806
DataValue, 0.78, 0, 0.0023822, 0.43888, 143.19536562841071, 0.0023822, 184.23306187557719
DataValue, 0.79, 0, 0.0024124, 0.44464, 143.16033825236283, 0.0024124, 184.31437572541867
DataValue, 0.8, 0, 0.0024454, 0.4516, 142.47157929173145, 0.0024454, 184.67326408767482
DataValue, 0.81, 0, 0.0024782, 0.45783999999999997, 142.10313937535312, 0.0024782, 184.74699378581229
DataValue, 0.82000000000000006, 0, 0.0025124, 0.46412, 141.64941888234361, 0.0025124, 184.73173061614392
DataValue, 0.83000000000000007, 0, 0.002549, 0.47024, 141.13770105923894, 0.002549, 184.48018830914083
DataValue, 0.84000000000000008, 0, 0.0025728, 0.47544, 141.69776119402988, 0.0025728, 184.79477611940297
DataValue, 0.85000000000000009, 0, 0.0026056, 0.48207999999999995, 141.20356155971757, 0.0026056, 185.01688670555726
DataValue, 0.86, 0, 0.0026338, 0.48735999999999996, 141.4837876831954, 0.0026338, 185.04062571189914
DataValue, 0.87, 0, 0.0026634000000000002, 0.49176, 142.0139671097094, 0.0026634000000000002, 184.63617931966655
DataValue, 0.88, 0, 0.0026976, 0.49835999999999997, 141.47390272835114, 0.0026976, 184.74199288256227
DataValue, 0.89, 0, 0.0027272, 0.50272, 142.00645350542683, 0.0027272, 184.33558228219417
DataValue, 0.9, 0, 0.0027484000000000002, 0.50656, 143.15237956629312, 0.0027484000000000002, 184.31087177994468
DataValue, 0.91, 0, 0.002767, 0.50964, 144.69100108420673, 0.002767, 184.18503794723526
DataValue, 0.92, 0, 0.0027728, 0.51147999999999993, 147.331217541835, 0.0027728, 184.46335833814192
DataValue, 0.93, 0, 0.0027734, 0.51084, 151.135790005048, 0.0027734, 184.192687675777
DataValue, 0.94000000000000006, 0, 0.0027556, 0.5048, 157.93293656553928, 0.0027556, 183.19059370010163
DataValue, 0.95000000000000007, 0, 0.0027206, 0.49856, 165.93398515033451, 0.0027206, 183.25369403807983
DataValue, 0.96000000000000008, 0, 0.0026798, 0.49012, 175.3414433912979, 0.0026798, 182.89424583924173
DataValue, 0.97000000000000008, 0, 0.002649, 0.48603999999999997, 182.69535673839189, 0.002649, 183.48055870139675
DataValue, 0.98000000000000009, 0, 0.002638, 0.48344, 188.23351023502656, 0.002638, 183.26004548900681
DataValue, 0.9900000000000001, 0, 0.002622, 0.48028, 194.40122044241042, 0.002622, 183.17315026697176
DataValue, 1, 0, 0.0026160000000000003, 0.47924, 199.06727828746176, 0.0026160000000000003, 183.19571865443425
DataValue, 1.01, 0, 0.0025844, 0.47131999999999996, 208.43522674508591, 0.0025844, 182.37114997678376
DataValue, 1.02, 0, 0.002542, 0.46348, 218.92997639653817, 0.002542, 182.32887490165226
DataValue, 1.03, 0, 0.0024914, 0.45011999999999996, 232.75266918198605, 0.0024914, 180.66950309063176
DataValue, 1.04, 0, 0.0024204, 0.43272, 250.90067757395474, 0.0024204, 178.78036688150718
DataValue, 1.05, 0, 0.0022328, 0.40292, 289.80652096022936, 0.0022328, 180.4550340379792
DataValue, 1.06, 0, 0.0021286, 0.37851999999999997, 320.15409189138404, 0.0021286, 177.82580099595978
DataValue, 1.07, 0, 0.0014432, 0.2512, 567.350332594235, 0.0014432, 174.05764966740577
DataValue, 1.08, 0, 0.0013412, 0.24531999999999998, 622.33820459290189, 0.0013412, 182.91082612585743
DataValue, 1.09, 0, 0.0012764, 0.21932, 682.13726104669388, 0.0012764, 171.82701347539955
DataValue, 1.1, 0, 0.0012754, 0.21208, 696.18943076681819, 0.0012754, 166.28508703151951
DataValue, 1.11, 0, 0.0011722, 0.22699999999999998, 753.28442245350629, 0.0011722, 193.65296024569184
DataValue, 1.12, 0, 0.0011836, 0.19427999999999998, 782.12233862791493, 0.0011836, 164.14329165258533
DataValue, 1.1300000000000001, 0, 0.0012132, 0.21203999999999998, 756.64358720738551, 0.0012132, 174.77744807121661
DataValue, 1.1400000000000001, 0, 0.0011316, 0.1982, 832.272887946271, 0.0011316, 175.1502297631672
DataValue, 1.1500000000000001, 0, 0.0011870000000000001, 0.21151999999999999, 790.63184498736314, 0.0011870000000000001, 178.19713563605725
DataValue, 1.1600000000000001, 0, 0.0012846, 0.20004, 747.28320099641917, 0.0012846, 155.72162540868752
DataValue, 1.1700000000000002, 0, 0.0010426, 0.19863999999999998, 931.67082294264355, 0.0010426, 190.5236907730673
DataValue, 1.1800000000000002, 0, 0.0011756, 0.16712, 861.58557332426017, 0.0011756, 142.15719632528069
DataValue, 1.19, 0, 0.001025, 0.1746, 990.63414634146318, 0.001025, 170.34146341463415
DataValue, 1.2, 0, 0.001006, 0.17759999999999998, 1016.3021868787276, 0.001006, 176.54075546719682
DataValue, 1.21, 0, 0.0010724, 0.20471999999999999, 937.41141365162241, 0.0010724, 190.89891831406189
DataValue, 1.22, 0, 0.0010578, 0.18228, 981.01720552089239, 0.0010578, 172.31990924560407
DataValue, 1.23, 0, 0.0009958, 0.18916, 1045.2299658565976, 0.0009958, 189.95782285599518
DataValue, 1.24, 0, 0.0008775, 0.17192, 1217.185185185185, 0.0008775, 195.92022792022792
DataValue, 1.25, 0, 0.0009873, 0.17487999999999998, 1088.9496606907728, 0.0009873, 177.12954522434922
DataValue, 1.26, 0, 0.0010156, 0.2326, 1011.6187475384011, 0.0010156, 229.0271760535644
DataValue, 1.27, 0, 0.00095206, 0.16516, 1160.4730794277673, 0.00095206, 173.47646156754826
DataValue, 1.28, 0, 0.0011038, 0.17612, 1000.0724768979887, 0.0011038, 159.55789092226851
DataValue, 1.29, 0, 0.0009604, 0.14928, 1187.7551020408162, 0.0009604, 155.43523531861723
DataValue, 1.3, 0, 0.0011876, 0.14759999999999998, 970.36039070394077, 0.0011876, 124.28427079824856
DataValue, 1.3, 0, 0.0008176800000000001, 0.14307999999999999, 1414.8811270912825, 0.0008176800000000001, 174.98287838763326
