
SetupTitle, DualRESET
PrimitiveTest, I/V Sweep
TestParameter, Context.MainFrame, B1500A
TestParameter, Channel.UnitType, SMU, SMU, SMU
TestParameter, Channel.Unit, SMU2:MP, SMU4:MP, SMU1:MP
TestParameter, Channel.IName, Irow, Icol, Igate
TestParameter, Channel.VName, Vrow, Vcol, Vgate
TestParameter, Channel.Mode, V, V, I
TestParameter, Channel.Func, VAR1, CONST, CONST
TestParameter, Channel.Index, 
TestParameter, Channel.Time, 
TestParameter, Measurement.Port.Unit, SMU2:MP, SMU4:MP, SMU1:MP
TestParameter, Measurement.Port.SeriesResistor, NONE, NONE, NONE
TestParameter, Measurement.Port.Filter, ON, ON, ON
TestParameter, Measurement.Port.OutputVoltageComparison, 0, 0, 0
TestParameter, Measurement.Primary.Locus, Double
TestParameter, Measurement.Primary.Scale, LINEAR
TestParameter, Measurement.Primary.Start, 0
TestParameter, Measurement.Primary.Stop, 1.3
TestParameter, Measurement.Primary.Step, 0.01
TestParameter, Measurement.Primary.Compliance, 0.004
TestParameter, Measurement.Primary.PowerCompliance, 0
TestParameter, Measurement.Aborting.Condition, CONTINUE AT ANY
TestParameter, Measurement.PostOutput.Value, START
TestParameter, Measurement.PostOutput.Retention, OFF
TestParameter, Measurement.Bias.Source, 0, 0, 1E-13
TestParameter, Measurement.Bias.Compliance, 0.004, 0.1, 10
TestParameter, Measurement.Monitor.Unit, SMU2:MP, SMU4:MP, SMU1:MP
TestParameter, Measurement.Monitor.Adc, HR ADC, HR ADC, HR ADC
TestParameter, Measurement.Monitor.Measurement, Compliance Side, Compliance Side, Compliance Side
TestParameter, Measurement.Monitor.RangingMode, LIMITED, LIMITED, LIMITED
TestParameter, Measurement.Monitor.RangeBoundary, 1nA, 1nA, 2V
TestParameter, Measurement.Monitor.RangeRating, BY FULL RANGE, BY FULL RANGE
TestParameter, Measurement.Monitor.RangeRatingCoeff, 50, 50
TestParameter, Measurement.Timing.Hold, 0
TestParameter, Measurement.Timing.Delay, 0
TestParameter, Measurement.Adc.HighSpeed.Mode, AUTO
TestParameter, Measurement.Adc.HighSpeed.Coeff, 1
TestParameter, Measurement.Adc.HighResolution.AutoZero, OFF
TestParameter, Measurement.Adc.HighResolution.Mode, AUTO
TestParameter, Measurement.Adc.HighResolution.Coeff, 6
TestParameter, Measurement.WaitTime.Source.Coeff, 1
TestParameter, Measurement.WaitTime.Source.Offset, 0
TestParameter, Measurement.WaitTime.Monitor.Coeff, 1
TestParameter, Measurement.WaitTime.Monitor.Offset, 0
TestParameter, Function.User.Name, R2, absIrow, R1
TestParameter, Function.User.Unit, ohm, A, ohm
TestParameter, Function.User.Definition, abs((Vrow-Vgate)/Irow), abs(Irow), abs(Vgate/Irow)
TestParameter, Output.Graph.Enabled, true
TestParameter, Output.Graph.AutoScaling, false
TestParameter, Output.Graph.XAxis.Data, Vrow
TestParameter, Output.Graph.XAxis.Scale, Linear
TestParameter, Output.Graph.XAxis.Left, 0
TestParameter, Output.Graph.XAxis.Right, 1.5
TestParameter, Output.Graph.XAxis.RunTimeAutoScale, true
TestParameter, Output.Graph.YAxis.Data, absIrow, Vgate
TestParameter, Output.Graph.YAxis.Scale, Linear, Linear
TestParameter, Output.Graph.YAxis.Bottom, 0, -0.1
TestParameter, Output.Graph.YAxis.Top, 1, 0.1
TestParameter, Output.Graph.YAxis.Group, , 
TestParameter, Output.Graph.YAxis.RunTimeAutoScale, true, true
TestParameter, Output.List.Data, Vrow, Vcol, R1, R2, Vgate, Irow
TestParameter, AutoAnalysis.Interpolation, false
TestParameter, AutoAnalysis.Line1.Enabled, false
TestParameter, AutoAnalysis.Line1.Type, 1
TestParameter, AutoAnalysis.Line1.Fix, True
TestParameter, AutoAnalysis.Line1.YAxis, 0
TestParameter, AutoAnalysis.Line1.Point1.Type, 0
TestParameter, AutoAnalysis.Line1.Point1.XY.X, 
TestParameter, AutoAnalysis.Line1.Point1.XY.Y, 
TestParameter, AutoAnalysis.Line1.Point1.Data.Var, 
TestParameter, AutoAnalysis.Line1.Point1.Data.Condition, 
TestParameter, AutoAnalysis.Line1.Point1.Data.Start, false
TestParameter, AutoAnalysis.Line1.Point1.Data.StartVar, 
TestParameter, AutoAnalysis.Line1.Point1.Data.StartCondition, 
TestParameter, AutoAnalysis.Line1.Point2.Type, 0
TestParameter, AutoAnalysis.Line1.Point2.XY.X, 
TestParameter, AutoAnalysis.Line1.Point2.XY.Y, 
TestParameter, AutoAnalysis.Line1.Point2.Data.Var, 
TestParameter, AutoAnalysis.Line1.Point2.Data.Condition, 
TestParameter, AutoAnalysis.Line1.Point2.Data.Start, false
TestParameter, AutoAnalysis.Line1.Point2.Data.StartVar, 
TestParameter, AutoAnalysis.Line1.Point2.Data.StartCondition, 
TestParameter, AutoAnalysis.Line1.GradientExpr, 0
TestParameter, AutoAnalysis.Line2.Enabled, false
TestParameter, AutoAnalysis.Line2.Type, 1
TestParameter, AutoAnalysis.Line2.Fix, True
TestParameter, AutoAnalysis.Line2.YAxis, 0
TestParameter, AutoAnalysis.Line2.Point1.Type, 0
TestParameter, AutoAnalysis.Line2.Point1.XY.X, 
TestParameter, AutoAnalysis.Line2.Point1.XY.Y, 
TestParameter, AutoAnalysis.Line2.Point1.Data.Var, 
TestParameter, AutoAnalysis.Line2.Point1.Data.Condition, 
TestParameter, AutoAnalysis.Line2.Point1.Data.Start, false
TestParameter, AutoAnalysis.Line2.Point1.Data.StartVar, 
TestParameter, AutoAnalysis.Line2.Point1.Data.StartCondition, 
TestParameter, AutoAnalysis.Line2.Point2.Type, 0
TestParameter, AutoAnalysis.Line2.Point2.XY.X, 
TestParameter, AutoAnalysis.Line2.Point2.XY.Y, 
TestParameter, AutoAnalysis.Line2.Point2.Data.Var, 
TestParameter, AutoAnalysis.Line2.Point2.Data.Condition, 
TestParameter, AutoAnalysis.Line2.Point2.Data.Start, false
TestParameter, AutoAnalysis.Line2.Point2.Data.StartVar, 
TestParameter, AutoAnalysis.Line2.Point2.Data.StartCondition, 
TestParameter, AutoAnalysis.Line2.GradientExpr, 0
TestParameter, AutoAnalysis.Marker.Enabled, false
TestParameter, AutoAnalysis.Marker.Data.Var, 
TestParameter, AutoAnalysis.Marker.Data.Condition, 
TestParameter, AutoAnalysis.Marker.Data.Start, false
TestParameter, AutoAnalysis.Marker.Data.StartVar, 
TestParameter, AutoAnalysis.Marker.Data.StartCondition, 
MetaData, TestRecord.EntryPoint, true
MetaData, TestRecord.RecordTime, 03/21/2019 18:44:13
MetaData, TestRecord.TestTarget, 3,4
MetaData, TestRecord.IterationIndex, 1
MetaData, TestRecord.Preservation, true
MetaData, TestRecord.Flag, 
MetaData, TestRecord.Remarks, 
MetaData, TestRecord.LinkKey, f381cc55-91c8-470f-8647-2eda20be7e3f
Dimension1, 262, 262, 262, 262, 262, 262, 262
Dimension2, 1, 1, 1, 1, 1, 1, 1
DataName, Vrow, Vcol, Irow, Vgate, R2, absIrow, R1
DataValue, 0, 0, -3.04106E-08, 0, -0, 3.04106E-08, -0
DataValue, 0.01, 0, 1.4244000000000001E-05, 0.0066799999999999993, 233.08059533838815, 1.4244000000000001E-05, 468.9693906206121
DataValue, 0.02, 0, 2.8612E-05, 0.013359999999999999, 232.0704599468755, 2.8612E-05, 466.936949531665
DataValue, 0.030000000000000002, 0, 4.3032000000000004E-05, 0.02004, 231.45566090351372, 4.3032000000000004E-05, 465.6999442275515
DataValue, 0.04, 0, 5.7232000000000004E-05, 0.02668, 232.73693038859381, 5.7232000000000004E-05, 466.17277047805419
DataValue, 0.05, 0, 7.1642E-05, 0.0334, 231.70765751933229, 7.1642E-05, 466.20697356299377
DataValue, 0.060000000000000005, 0, 8.598E-05, 0.03992, 233.54268434519665, 8.598E-05, 464.29402186555012
DataValue, 0.07, 0, 0.0001003, 0.046599999999999996, 233.30009970089742, 0.0001003, 464.60618145563308
DataValue, 0.08, 0, 0.000114672, 0.053399999999999996, 231.96595507185717, 0.000114672, 465.67601506906652
DataValue, 0.090000000000000011, 0, 0.00012892, 0.05996, 233.01272106732864, 0.00012892, 465.09463233012718
DataValue, 0.1, 0, 0.0001432, 0.06668, 232.68156424581005, 0.0001432, 465.64245810055866
DataValue, 0.11, 0, 0.00015754, 0.07332, 232.82975752189921, 0.00015754, 465.40561127332734
DataValue, 0.12000000000000001, 0, 0.00017194, 0.08004, 232.40665348377345, 0.00017194, 465.51122484587643
DataValue, 0.13, 0, 0.0001863, 0.08664, 232.74288781535162, 0.0001863, 465.05636070853461
DataValue, 0.14, 0, 0.00020050000000000002, 0.0934, 232.41895261845392, 0.00020050000000000002, 465.83541147132161
DataValue, 0.15, 0, 0.00021496000000000002, 0.099999999999999992, 232.60141421659844, 0.00021496000000000002, 465.20282843319683
DataValue, 0.16, 0, 0.00022928000000000003, 0.10668, 232.55408234473134, 0.00022928000000000003, 465.28262386601529
DataValue, 0.17, 0, 0.00024380000000000002, 0.1134, 232.15750615258412, 0.00024380000000000002, 465.13535684987693
DataValue, 0.18000000000000002, 0, 0.00025818, 0.12007999999999999, 232.08614145170049, 0.00025818, 465.10186691455573
DataValue, 0.19, 0, 0.00027236000000000003, 0.12672, 232.33955059480098, 0.00027236000000000003, 465.26655896607429
DataValue, 0.2, 0, 0.00028682, 0.13348, 231.92246007949242, 0.00028682, 465.37898333449544
DataValue, 0.21000000000000002, 0, 0.0003012, 0.1402, 231.73970783532545, 0.0003012, 465.47144754316065
DataValue, 0.22, 0, 0.0003153, 0.14676, 232.28671106882334, 0.0003153, 465.46146527117031
DataValue, 0.23, 0, 0.00032982000000000004, 0.15348, 232.00533624401189, 0.00032982000000000004, 465.34473349099505
DataValue, 0.24000000000000002, 0, 0.00034386000000000003, 0.16024, 231.95486535217827, 0.00034386000000000003, 466.0036061187692
DataValue, 0.25, 0, 0.00035834, 0.16696, 231.735223530725, 0.00035834, 465.92621532622644
DataValue, 0.26, 0, 0.0003729, 0.17368, 231.48297130598016, 0.0003729, 465.75489407347811
DataValue, 0.27, 0, 0.00038708000000000004, 0.18036, 231.58003513485588, 0.00038708000000000004, 465.95019117495087
DataValue, 0.28, 0, 0.0004018, 0.187, 231.45843703334998, 0.0004018, 465.40567446490792
DataValue, 0.29000000000000004, 0, 0.00041574, 0.1938, 231.39462163852417, 0.00041574, 466.15673257324289
DataValue, 0.3, 0, 0.00043020000000000005, 0.20048, 231.33426313342628, 0.00043020000000000005, 466.01580660158061
DataValue, 0.31, 0, 0.00044464000000000005, 0.20723999999999998, 231.10831234256929, 0.00044464000000000005, 466.08492263404094
DataValue, 0.32, 0, 0.00045880000000000004, 0.214, 231.03748910200523, 0.00045880000000000004, 466.43417611159543
DataValue, 0.33, 0, 0.00047286, 0.22072, 231.10434378040014, 0.00047286, 466.77663579072026
DataValue, 0.34, 0, 0.000487, 0.2274, 231.21149897330602, 0.000487, 466.94045174537985
DataValue, 0.35000000000000003, 0, 0.00050164, 0.2342, 230.84283549956152, 0.00050164, 466.86867075990745
DataValue, 0.36000000000000004, 0, 0.0005159, 0.24095999999999998, 230.74239193642191, 0.0005159, 467.06726109711178
DataValue, 0.37, 0, 0.0005299, 0.2478, 230.60954897150404, 0.0005299, 467.6354029062087
DataValue, 0.38, 0, 0.00054430000000000006, 0.2544, 230.75509829138338, 0.00054430000000000006, 467.3893073672607
DataValue, 0.39, 0, 0.00055808000000000008, 0.2612, 230.79128440366975, 0.00055808000000000008, 468.03325688073386
DataValue, 0.4, 0, 0.00057234000000000007, 0.26804, 230.56225320613623, 0.00057234000000000007, 468.32302477548308
DataValue, 0.41000000000000003, 0, 0.00058688, 0.27488, 230.23446019629228, 0.00058688, 468.37513631406762
DataValue, 0.42000000000000004, 0, 0.00060120000000000009, 0.28159999999999996, 230.20625415835008, 0.00060120000000000009, 468.39654025282755
DataValue, 0.43, 0, 0.00061494, 0.28848, 230.13627345757305, 0.00061494, 469.11893843301789
DataValue, 0.44, 0, 0.00062878, 0.29536, 230.03276185629312, 0.00062878, 469.73504246318271
DataValue, 0.45, 0, 0.00064326, 0.302, 230.07803998383238, 0.00064326, 469.48356807511738
DataValue, 0.46, 0, 0.00065704, 0.30896, 229.87945939364423, 0.00065704, 470.23012297577014
DataValue, 0.47000000000000003, 0, 0.00067094000000000008, 0.31579999999999997, 229.82681014695805, 0.00067094000000000008, 470.6829224669865
DataValue, 0.48000000000000004, 0, 0.00068586, 0.32264, 229.43457848540524, 0.00068586, 470.4167031172542
DataValue, 0.49000000000000005, 0, 0.00069962000000000008, 0.32936, 229.61035990966531, 0.00069962000000000008, 470.76984648809344
DataValue, 0.5, 0, 0.00071412000000000005, 0.33612, 229.48524057581361, 0.00071412000000000005, 470.67719710972938
DataValue, 0.51, 0, 0.00072816, 0.3428, 229.61986376620524, 0.00072816, 470.77565370248294
DataValue, 0.52, 0, 0.000742, 0.34959999999999997, 229.64959568733158, 0.000742, 471.1590296495956
DataValue, 0.53, 0, 0.0007559, 0.35675999999999997, 229.18375446487639, 0.0007559, 471.96719142743746
DataValue, 0.54, 0, 0.00077006, 0.36332, 229.43666727268013, 0.00077006, 471.80739163182085
DataValue, 0.55, 0, 0.00078444000000000007, 0.3702, 229.20809749630317, 0.00078444000000000007, 471.92901942787205
DataValue, 0.56, 0, 0.0007986200000000001, 0.37679999999999997, 229.39570759560249, 0.0007986200000000001, 471.81387894117341
DataValue, 0.57000000000000006, 0, 0.000814, 0.38355999999999996, 229.04176904176916, 0.000814, 471.20393120393112
DataValue, 0.58000000000000007, 0, 0.00082816000000000009, 0.39027999999999996, 229.08616692426594, 0.00082816000000000009, 471.26159196290564
DataValue, 0.59000000000000008, 0, 0.00084256, 0.39712, 228.92138245347525, 0.00084256, 471.32548423851119
DataValue, 0.6, 0, 0.00085706000000000009, 0.4038, 228.92212913915009, 0.00085706000000000009, 471.14554406926
DataValue, 0.61, 0, 0.00087090000000000008, 0.4104, 229.18819611895736, 0.00087090000000000008, 471.23665173957971
DataValue, 0.62, 0, 0.00088524, 0.41716, 229.13560164475172, 0.00088524, 471.23943789254889
DataValue, 0.63, 0, 0.00090032, 0.42404, 228.76310645103965, 0.00090032, 470.98809312244532
DataValue, 0.64, 0, 0.00091376, 0.43088, 228.85659254071095, 0.00091376, 471.5461390299422
DataValue, 0.65, 0, 0.0009282, 0.43779999999999997, 228.61452273216986, 0.0009282, 471.66558931264808
DataValue, 0.66, 0, 0.00094210000000000008, 0.44451999999999997, 228.72306549198603, 0.00094210000000000008, 471.839507483282
DataValue, 0.67, 0, 0.00095646, 0.45143999999999995, 228.50929469083923, 0.00095646, 471.9904648390941
DataValue, 0.68, 0, 0.0009707400000000001, 0.45796, 228.73271936872905, 0.0009707400000000001, 471.76380905288744
DataValue, 0.69000000000000006, 0, 0.00098516000000000012, 0.46471999999999997, 228.67351496203668, 0.00098516000000000012, 471.72032969263864
DataValue, 0.70000000000000007, 0, 0.00099844, 0.47159999999999996, 228.75686070269632, 0.00099844, 472.33684547894711
DataValue, 0.71000000000000008, 0, 0.0010125000000000002, 0.47819999999999996, 228.93827160493837, 0.0010125000000000002, 472.29629629629619
DataValue, 0.72000000000000008, 0, 0.00102632, 0.48516, 228.81752279990656, 0.00102632, 472.71806064385373
DataValue, 0.73, 0, 0.00104012, 0.49176, 229.05049417374917, 0.00104012, 472.79160096911892
DataValue, 0.74, 0, 0.0010543, 0.49848, 229.080906762781, 0.0010543, 472.80660153656453
DataValue, 0.75, 0, 0.00106798, 0.5052, 229.21777561377553, 0.00106798, 473.04256634019362
DataValue, 0.76, 0, 0.00108156, 0.51212, 229.18746995081176, 0.00108156, 473.50123895114461
DataValue, 0.77, 0, 0.00109548, 0.51884, 229.2693613758353, 0.00109548, 473.61887026691494
DataValue, 0.78, 0, 0.0011099200000000001, 0.52535999999999994, 229.42194032002311, 0.0011099200000000001, 473.3314112728844
DataValue, 0.79, 0, 0.00112414, 0.53216, 229.36644901880555, 0.00112414, 473.3929937552262
DataValue, 0.8, 0, 0.0011378, 0.53892, 229.46036210230275, 0.0011378, 473.6509052557567
DataValue, 0.81, 0, 0.0011516, 0.54572, 229.48940604376526, 0.0011516, 473.87981938172976
DataValue, 0.82000000000000006, 0, 0.0011652, 0.55248, 229.59148644009622, 0.0011652, 474.1503604531411
DataValue, 0.83000000000000007, 0, 0.0011796, 0.55931999999999993, 229.46761614106487, 0.0011796, 474.16073245167843
DataValue, 0.84000000000000008, 0, 0.0011934, 0.56624, 229.39500586559419, 0.0011934, 474.47628624099207
DataValue, 0.85000000000000009, 0, 0.0012072, 0.57304, 229.42345924453286, 0.0012072, 474.68522200132537
DataValue, 0.86, 0, 0.0012198, 0.57984, 229.67699622888995, 0.0012198, 475.35661583866209
DataValue, 0.87, 0, 0.0012352, 0.58719999999999994, 228.95077720207257, 0.0012352, 475.38860103626934
DataValue, 0.88, 0, 0.0012492, 0.59424, 228.7544028178034, 0.0012492, 475.69644572526414
DataValue, 0.89, 0, 0.0012634, 0.60104, 228.71616273547568, 0.0012634, 475.7321513376603
DataValue, 0.9, 0, 0.0012774, 0.60776, 228.77720369500554, 0.0012774, 475.77892594332235
DataValue, 0.91, 0, 0.0012906, 0.61476, 228.761816209515, 0.0012906, 476.33658763365872
DataValue, 0.92, 0, 0.0013042, 0.6218, 228.64591320349643, 0.0013042, 476.76736696825645
DataValue, 0.93, 0, 0.001319, 0.62844, 228.62774829416227, 0.001319, 476.45185746777861
DataValue, 0.94000000000000006, 0, 0.001332, 0.63568, 228.46846846846847, 0.001332, 477.23723723723725
DataValue, 0.95000000000000007, 0, 0.0013458, 0.64235999999999993, 228.59265864170018, 0.0013458, 477.30717788675872
DataValue, 0.96000000000000008, 0, 0.0013602, 0.64948, 228.28995735921197, 0.0013602, 477.48860461696808
DataValue, 0.97000000000000008, 0, 0.0013742000000000001, 0.65664, 228.030854315238, 0.0013742000000000001, 477.83437636443017
DataValue, 0.98000000000000009, 0, 0.0013866, 0.66399999999999992, 227.89557190249545, 0.0013866, 478.86917640271162
DataValue, 0.9900000000000001, 0, 0.0014002, 0.6704, 228.25310669904306, 0.0014002, 478.78874446507638
DataValue, 1, 0, 0.0014146, 0.67831999999999992, 227.39997172345545, 0.0014146, 479.51364343277248
DataValue, 1.01, 0, 0.0014278000000000001, 0.68492, 227.67894663118085, 0.0014278000000000001, 479.70303964140629
DataValue, 1.02, 0, 0.0014428, 0.69204, 227.30801219850295, 0.0014428, 479.65067923482121
DataValue, 1.03, 0, 0.0014572, 0.69872, 227.34010430963491, 0.0014572, 479.4949217677738
DataValue, 1.04, 0, 0.0014706, 0.70563999999999993, 227.36298109615129, 0.0014706, 479.83136134910916
DataValue, 1.05, 0, 0.001484, 0.71292, 227.14285714285717, 0.001484, 480.4043126684636
DataValue, 1.06, 0, 0.0014976, 0.72012, 226.94978632478637, 0.0014976, 480.84935897435895
DataValue, 1.07, 0, 0.0015128000000000001, 0.72736, 226.49391856160764, 0.0015128000000000001, 480.80380750925434
DataValue, 1.08, 0, 0.0015268, 0.73371999999999993, 226.80115273775226, 0.0015268, 480.56064972491481
DataValue, 1.09, 0, 0.0015406, 0.741, 226.53511618849805, 0.0015406, 480.98143580423209
DataValue, 1.1, 0, 0.0015538, 0.74852, 226.20671901145587, 0.0015538, 481.73510104260521
DataValue, 1.11, 0, 0.0015666, 0.75491999999999992, 226.65645346610504, 0.0015666, 481.8843355036384
DataValue, 1.12, 0, 0.0015822, 0.76232, 226.06497282265207, 0.0015822, 481.81013778283403
DataValue, 1.1300000000000001, 0, 0.0015954, 0.7702, 225.52337971668553, 0.0015954, 482.76294346245453
DataValue, 1.1400000000000001, 0, 0.001612, 0.77655999999999992, 225.45905707196044, 0.001612, 481.73697270471462
DataValue, 1.1500000000000001, 0, 0.0016248, 0.78464, 224.86459871984252, 0.0016248, 482.91482028557363
DataValue, 1.1600000000000001, 0, 0.001637, 0.79131999999999991, 225.21686010995737, 0.001637, 483.39645693341475
DataValue, 1.1700000000000002, 0, 0.0016528, 0.79724, 225.53242981606982, 0.0016528, 482.35721200387218
DataValue, 1.1800000000000002, 0, 0.0016714, 0.8048, 224.48246978580843, 0.0016714, 481.51250448725619
DataValue, 1.19, 0, 0.0016844, 0.81119999999999992, 224.88720018997864, 0.0016844, 481.59582047019705
DataValue, 1.2, 0, 0.0016984, 0.81848, 224.63495054168627, 0.0016984, 481.91238813000467
DataValue, 1.21, 0, 0.001717, 0.82592, 223.69248689574837, 0.001717, 481.02504368083868
DataValue, 1.22, 0, 0.001738, 0.83276, 222.80782508630611, 0.001738, 479.14844649021865
DataValue, 1.23, 0, 0.0017556, 0.83888, 222.78423331054913, 0.0017556, 477.83094098883572
DataValue, 1.24, 0, 0.0017734, 0.84556, 222.42020976655013, 0.0017734, 476.80162399909773
DataValue, 1.25, 0, 0.0017898, 0.85151999999999994, 222.63940105039671, 0.0017898, 475.76265504525639
DataValue, 1.26, 0, 0.0018046, 0.85695999999999994, 223.34035243267209, 0.0018046, 474.87531863016733
DataValue, 1.27, 0, 0.0018268, 0.86371999999999993, 222.3998248303044, 0.0018268, 472.804904751478
DataValue, 1.28, 0, 0.001848, 0.87135999999999991, 221.12554112554119, 0.001848, 471.51515151515144
