
SetupTitle, FORM
PrimitiveTest, I/V Sweep
TestParameter, Context.MainFrame, B1500A
TestParameter, Channel.UnitType, SMU, SMU
TestParameter, Channel.Unit, SMU1:MP, SMU2:MP
TestParameter, Channel.IName, Itop, Ibot
TestParameter, Channel.VName, Vtop, Vbot
TestParameter, Channel.Mode, V, V
TestParameter, Channel.Func, VAR1, CONST
TestParameter, Channel.Index, 
TestParameter, Channel.Time, 
TestParameter, Measurement.Port.Unit, SMU1:MP, SMU2:MP
TestParameter, Measurement.Port.SeriesResistor, NONE, NONE
TestParameter, Measurement.Port.Filter, ON, ON
TestParameter, Measurement.Port.OutputVoltageComparison, 0, 0
TestParameter, Measurement.Primary.Locus, Double
TestParameter, Measurement.Primary.Scale, LINEAR
TestParameter, Measurement.Primary.Start, 0
TestParameter, Measurement.Primary.Stop, 3.5
TestParameter, Measurement.Primary.Step, 0.035
TestParameter, Measurement.Primary.Compliance, 5E-06
TestParameter, Measurement.Primary.PowerCompliance, 0
TestParameter, Measurement.Aborting.Condition, CONTINUE AT ANY
TestParameter, Measurement.PostOutput.Value, START
TestParameter, Measurement.PostOutput.Retention, OFF
TestParameter, Measurement.Bias.Source, 0, 0
TestParameter, Measurement.Bias.Compliance, 5E-06, 0.1
TestParameter, Measurement.Monitor.Unit, SMU1:MP, SMU2:MP
TestParameter, Measurement.Monitor.Adc, HR ADC, HR ADC
TestParameter, Measurement.Monitor.Measurement, Compliance Side, Compliance Side
TestParameter, Measurement.Monitor.RangingMode, LIMITED, LIMITED
TestParameter, Measurement.Monitor.RangeBoundary, 1nA, 1nA
TestParameter, Measurement.Monitor.RangeRating, BY FULL RANGE, BY FULL RANGE
TestParameter, Measurement.Monitor.RangeRatingCoeff, 50, 50
TestParameter, Measurement.Timing.Hold, 0
TestParameter, Measurement.Timing.Delay, 0
TestParameter, Measurement.Adc.HighSpeed.Mode, AUTO
TestParameter, Measurement.Adc.HighSpeed.Coeff, 1
TestParameter, Measurement.Adc.HighResolution.AutoZero, OFF
TestParameter, Measurement.Adc.HighResolution.Mode, AUTO
TestParameter, Measurement.Adc.HighResolution.Coeff, 6
TestParameter, Measurement.WaitTime.Source.Coeff, 1
TestParameter, Measurement.WaitTime.Source.Offset, 0
TestParameter, Measurement.WaitTime.Monitor.Coeff, 1
TestParameter, Measurement.WaitTime.Monitor.Offset, 0
TestParameter, Function.User.Name, Resistance
TestParameter, Function.User.Unit, ohm
TestParameter, Function.User.Definition, abs(Vtop/Itop)
TestParameter, Output.Graph.Enabled, true
TestParameter, Output.Graph.AutoScaling, false
TestParameter, Output.Graph.XAxis.Data, Vtop
TestParameter, Output.Graph.XAxis.Scale, Linear
TestParameter, Output.Graph.XAxis.Left, 0
TestParameter, Output.Graph.XAxis.Right, 3.5
TestParameter, Output.Graph.XAxis.RunTimeAutoScale, true
TestParameter, Output.Graph.YAxis.Data, Itop
TestParameter, Output.Graph.YAxis.Scale, Linear
TestParameter, Output.Graph.YAxis.Bottom, -4.9999999999999996E-06
TestParameter, Output.Graph.YAxis.Top, 4.9999999999999996E-06
TestParameter, Output.Graph.YAxis.Group, 
TestParameter, Output.Graph.YAxis.RunTimeAutoScale, true
TestParameter, Output.List.Data, Vtop, Itop, Resistance
TestParameter, AutoAnalysis.Interpolation, false
TestParameter, AutoAnalysis.Line1.Enabled, false
TestParameter, AutoAnalysis.Line1.Type, 1
TestParameter, AutoAnalysis.Line1.Fix, True
TestParameter, AutoAnalysis.Line1.YAxis, 0
TestParameter, AutoAnalysis.Line1.Point1.Type, 0
TestParameter, AutoAnalysis.Line1.Point1.XY.X, 
TestParameter, AutoAnalysis.Line1.Point1.XY.Y, 
TestParameter, AutoAnalysis.Line1.Point1.Data.Var, 
TestParameter, AutoAnalysis.Line1.Point1.Data.Condition, 
TestParameter, AutoAnalysis.Line1.Point1.Data.Start, false
TestParameter, AutoAnalysis.Line1.Point1.Data.StartVar, 
TestParameter, AutoAnalysis.Line1.Point1.Data.StartCondition, 
TestParameter, AutoAnalysis.Line1.Point2.Type, 0
TestParameter, AutoAnalysis.Line1.Point2.XY.X, 
TestParameter, AutoAnalysis.Line1.Point2.XY.Y, 
TestParameter, AutoAnalysis.Line1.Point2.Data.Var, 
TestParameter, AutoAnalysis.Line1.Point2.Data.Condition, 
TestParameter, AutoAnalysis.Line1.Point2.Data.Start, false
TestParameter, AutoAnalysis.Line1.Point2.Data.StartVar, 
TestParameter, AutoAnalysis.Line1.Point2.Data.StartCondition, 
TestParameter, AutoAnalysis.Line1.GradientExpr, 0
TestParameter, AutoAnalysis.Line2.Enabled, false
TestParameter, AutoAnalysis.Line2.Type, 1
TestParameter, AutoAnalysis.Line2.Fix, True
TestParameter, AutoAnalysis.Line2.YAxis, 0
TestParameter, AutoAnalysis.Line2.Point1.Type, 0
TestParameter, AutoAnalysis.Line2.Point1.XY.X, 
TestParameter, AutoAnalysis.Line2.Point1.XY.Y, 
TestParameter, AutoAnalysis.Line2.Point1.Data.Var, 
TestParameter, AutoAnalysis.Line2.Point1.Data.Condition, 
TestParameter, AutoAnalysis.Line2.Point1.Data.Start, false
TestParameter, AutoAnalysis.Line2.Point1.Data.StartVar, 
TestParameter, AutoAnalysis.Line2.Point1.Data.StartCondition, 
TestParameter, AutoAnalysis.Line2.Point2.Type, 0
TestParameter, AutoAnalysis.Line2.Point2.XY.X, 
TestParameter, AutoAnalysis.Line2.Point2.XY.Y, 
TestParameter, AutoAnalysis.Line2.Point2.Data.Var, 
TestParameter, AutoAnalysis.Line2.Point2.Data.Condition, 
TestParameter, AutoAnalysis.Line2.Point2.Data.Start, false
TestParameter, AutoAnalysis.Line2.Point2.Data.StartVar, 
TestParameter, AutoAnalysis.Line2.Point2.Data.StartCondition, 
TestParameter, AutoAnalysis.Line2.GradientExpr, 0
TestParameter, AutoAnalysis.Marker.Enabled, false
TestParameter, AutoAnalysis.Marker.Data.Var, 
TestParameter, AutoAnalysis.Marker.Data.Condition, 
TestParameter, AutoAnalysis.Marker.Data.Start, false
TestParameter, AutoAnalysis.Marker.Data.StartVar, 
TestParameter, AutoAnalysis.Marker.Data.StartCondition, 
MetaData, TestRecord.EntryPoint, true
MetaData, TestRecord.RecordTime, 03/21/2019 19:49:44
MetaData, TestRecord.TestTarget, 
MetaData, TestRecord.IterationIndex, 2
MetaData, TestRecord.Preservation, true
MetaData, TestRecord.Flag, 
MetaData, TestRecord.Remarks, 
MetaData, TestRecord.LinkKey, ecd8875c-0395-466c-a079-6efc6bf25cbf
Dimension1, 202, 202, 202
Dimension2, 1, 1, 1
DataName, Vtop, Itop, Resistance
DataValue, 0, -6.767000000000001E-11, -0
DataValue, 0.035, -1.3647000000000002E-10, 256466622.70095989
DataValue, 0.07, -8.65E-12, 8092485549.1329479
DataValue, 0.105, 1.2014E-10, 873980356.25104034
DataValue, 0.14, 7.4340000000000012E-11, 1883239171.3747644
DataValue, 0.17500000000000002, -5.867E-11, 2982785069.030169
DataValue, 0.21, -6.515E-11, 3223330775.134305
DataValue, 0.245, 1.4107E-10, 1736726447.8627629
DataValue, 0.28, 3.4072000000000004E-10, 821789152.38318849
DataValue, 0.315, 4.9459E-10, 636891162.3769182
DataValue, 0.35000000000000003, 7.035600000000001E-10, 497470009.66513157
DataValue, 0.385, 1.4093E-09, 273185269.28262258
DataValue, 0.42, 2.168E-09, 193726937.2693727
DataValue, 0.455, 2.9241E-09, 155603433.53510484
DataValue, 0.49, 3.8963E-09, 125760336.72971793
DataValue, 0.525, 5.1885E-09, 101185313.67447241
DataValue, 0.56, 6.6717E-09, 83936627.845976308
DataValue, 0.595, 8.3259E-09, 71463745.661129713
DataValue, 0.63, 1.00391E-08, 62754629.399049714
DataValue, 0.665, 1.1882399999999999E-08, 55965124.890594505
DataValue, 0.70000000000000007, 1.37966E-08, 50737138.135482661
DataValue, 0.735, 1.62854E-08, 45132449.924472228
DataValue, 0.77, 1.8841399999999998E-08, 40867451.463267066
DataValue, 0.805, 2.1434399999999997E-08, 37556451.311909832
DataValue, 0.84, 2.5150799999999997E-08, 33398540.00667971
DataValue, 0.875, 2.9025799999999997E-08, 30145594.608934123
DataValue, 0.91, 3.29792E-08, 27593149.621579666
DataValue, 0.94500000000000006, 3.7812599999999994E-08, 24991669.443518832
DataValue, 0.98, 4.2495199999999995E-08, 23061428.114234079
DataValue, 1.0150000000000001, 4.8147399999999996E-08, 21081096.79858103
DataValue, 1.05, 5.4759399999999996E-08, 19174790.081702869
DataValue, 1.085, 6.20256E-08, 17492777.175875768
DataValue, 1.12, 7.01142E-08, 15973939.658442942
DataValue, 1.155, 7.92654E-08, 14571300.971167749
DataValue, 1.19, 8.804079999999999E-08, 13516460.550108587
DataValue, 1.225, 9.93242E-08, 12333348.770994382
DataValue, 1.26, 1.1343759999999999E-07, 11107428.224856662
DataValue, 1.295, 1.2472E-07, 10383258.499037845
DataValue, 1.33, 1.4314E-07, 9291602.626798939
DataValue, 1.365, 1.6078E-07, 8489861.9231247678
DataValue, 1.4000000000000001, 1.8074E-07, 7745933.3849728908
DataValue, 1.435, 2.1068E-07, 6811277.7672299221
DataValue, 1.47, 2.3201999999999998E-07, 6335660.7189035434
DataValue, 1.5050000000000001, 2.6588E-07, 5660448.322551528
DataValue, 1.54, 3.1026E-07, 4963578.933797461
DataValue, 1.575, 3.5944E-07, 4381816.1584687289
DataValue, 1.61, 4.0644E-07, 3961224.2889479385
DataValue, 1.645, 5.0638E-07, 3248548.5208736523
DataValue, 1.68, 5.7366E-07, 2928563.9577450058
DataValue, 1.715, 3.941E-07, 4351687.3889875663
DataValue, 1.75, 4.5138E-07, 3876999.4239886571
DataValue, 1.7850000000000001, 4.9114E-07, 3634401.5962861916
DataValue, 1.82, 5.0388E-07, 3611971.1042311662
DataValue, 1.855, 5.9612E-07, 3111789.5725692813
DataValue, 1.8900000000000001, 6.887E-07, 2744300.8566865111
DataValue, 1.925, 3.98E-07, 4836683.4170854278
DataValue, 1.96, 5.0008000000000005E-06, 391937.29003359459
DataValue, 1.995, 5.0005000000000007E-06, 398960.103989601
DataValue, 2.0300000000000002, 5.0006000000000009E-06, 405951.2858456985
DataValue, 2.065, 5.0007E-06, 412942.18809366686
DataValue, 2.1, 5.0006000000000009E-06, 419949.60604727425
DataValue, 2.1350000000000002, 5.0005000000000007E-06, 426957.304269573
DataValue, 2.17, 5.0006000000000009E-06, 433947.92624885007
DataValue, 2.205, 5.0006000000000009E-06, 440947.086349638
DataValue, 2.24, 5.0005000000000007E-06, 447955.20447955205
DataValue, 2.275, 5.0007E-06, 454936.30891675159
DataValue, 2.31, 5.0006000000000009E-06, 461944.5666520017
DataValue, 2.345, 5.0006000000000009E-06, 468943.72675278963
DataValue, 2.38, 5.0006000000000009E-06, 475942.88685357745
DataValue, 2.415, 5.0005000000000007E-06, 482951.704829517
DataValue, 2.45, 5.0007E-06, 489931.40960265562
DataValue, 2.485, 5.0006000000000009E-06, 496940.3671559412
DataValue, 2.52, 5.0005000000000007E-06, 503949.605039496
DataValue, 2.555, 5.0006000000000009E-06, 510938.687357517
DataValue, 2.59, 5.0005000000000007E-06, 517948.20517948194
DataValue, 2.625, 5.0006000000000009E-06, 524937.00755909283
DataValue, 2.66, 5.0005000000000007E-06, 531946.805319468
DataValue, 2.695, 5.0005000000000007E-06, 538946.10538946092
DataValue, 2.73, 5.0006000000000009E-06, 545934.48786145658
DataValue, 2.765, 5.0006000000000009E-06, 552933.64796224446
DataValue, 2.8000000000000003, 5.0006000000000009E-06, 559932.80806303234
DataValue, 2.835, 5.0006000000000009E-06, 566931.96816382022
DataValue, 2.87, 5.0005000000000007E-06, 573942.605739426
DataValue, 2.9050000000000002, 5.0006000000000009E-06, 580930.28836539609
DataValue, 2.94, 5.0006000000000009E-06, 587929.448466184
DataValue, 2.975, 5.0006000000000009E-06, 594928.60856697184
DataValue, 3.0100000000000002, 5.0005000000000007E-06, 601939.806019398
DataValue, 3.045, 5.0006000000000009E-06, 608926.9287685476
DataValue, 3.08, 5.0006000000000009E-06, 615926.0888693356
DataValue, 3.115, 5.0006000000000009E-06, 622925.24897012347
DataValue, 3.15, 5.0006000000000009E-06, 629924.40907091135
DataValue, 3.185, 5.0005000000000007E-06, 636936.306369363
DataValue, 3.22, 5.0006000000000009E-06, 643922.72927248722
DataValue, 3.255, 5.0006000000000009E-06, 650921.8893732751
DataValue, 3.29, 5.0008000000000005E-06, 657894.73684210517
DataValue, 3.325, 5.0006000000000009E-06, 664920.209574851
DataValue, 3.36, 5.0006000000000009E-06, 671919.36967563874
DataValue, 3.395, 5.0007E-06, 678904.953306537
DataValue, 3.43, 5.0005000000000007E-06, 685931.406859314
DataValue, 3.465, 5.0005000000000007E-06, 692930.706929307
DataValue, 3.5, 5.0005000000000007E-06, 699930.0069993
DataValue, 3.5, 5.0006000000000009E-06, 699916.01007879036
DataValue, 3.465, 5.0006000000000009E-06, 692916.84997800249
DataValue, 3.43, 5.0006000000000009E-06, 685917.68987721461
DataValue, 3.395, 5.0005000000000007E-06, 678932.10678932094
DataValue, 3.36, 5.0005000000000007E-06, 671932.80671932793
DataValue, 3.325, 5.0006000000000009E-06, 664920.209574851
DataValue, 3.29, 5.0006000000000009E-06, 657921.049474063
DataValue, 3.255, 5.0006000000000009E-06, 650921.8893732751
DataValue, 3.22, 5.0007E-06, 643909.85262063309
DataValue, 3.185, 5.0007E-06, 636910.83248345228
DataValue, 3.15, 5.0007E-06, 629911.81234627147
DataValue, 3.115, 5.0006000000000009E-06, 622925.24897012347
DataValue, 3.08, 5.0006000000000009E-06, 615926.0888693356
DataValue, 3.045, 5.0005000000000007E-06, 608939.10608939093
DataValue, 3.0100000000000002, 5.0005000000000007E-06, 601939.806019398
DataValue, 2.975, 5.0005000000000007E-06, 594940.505949405
DataValue, 2.94, 5.0006000000000009E-06, 587929.448466184
DataValue, 2.9050000000000002, 5.0006000000000009E-06, 580930.28836539609
DataValue, 2.87, 5.0005000000000007E-06, 573942.605739426
DataValue, 2.835, 5.0006000000000009E-06, 566931.96816382022
DataValue, 2.8000000000000003, 5.0006000000000009E-06, 559932.80806303234
DataValue, 2.765, 5.0006000000000009E-06, 552933.64796224446
DataValue, 2.73, 5.0005000000000007E-06, 545945.40545945393
DataValue, 2.695, 5.0006000000000009E-06, 538935.32776066859
DataValue, 2.66, 5.0006000000000009E-06, 531936.16765988071
DataValue, 2.625, 5.0007E-06, 524926.5102885596
DataValue, 2.59, 5.0006000000000009E-06, 517937.8474583049
DataValue, 2.555, 5.0006000000000009E-06, 510938.687357517
DataValue, 2.52, 5.0007E-06, 503929.44987701718
DataValue, 2.485, 5.0008000000000005E-06, 496920.49272116454
DataValue, 2.45, 5.0006000000000009E-06, 489941.20705515333
DataValue, 2.415, 5.0005000000000007E-06, 482951.704829517
DataValue, 2.38, 5.0006000000000009E-06, 475942.88685357745
DataValue, 2.345, 5.0005000000000007E-06, 468953.104689531
DataValue, 2.31, 5.0006000000000009E-06, 461944.5666520017
DataValue, 2.275, 5.0007E-06, 454936.30891675159
DataValue, 2.24, 5.0005000000000007E-06, 447955.20447955205
DataValue, 2.205, 5.0007E-06, 440938.26864239003
DataValue, 2.17, 5.0006000000000009E-06, 433947.92624885007
DataValue, 2.1350000000000002, 5.0006000000000009E-06, 426948.76614806219
DataValue, 2.1, 5.0005000000000007E-06, 419958.00419958
DataValue, 2.065, 5.0006000000000009E-06, 412950.44594648632
DataValue, 2.0300000000000002, 5.0006000000000009E-06, 405951.2858456985
DataValue, 1.995, 5.0005000000000007E-06, 398960.103989601
DataValue, 1.96, 5.0006000000000009E-06, 391952.96564412263
DataValue, 1.925, 5.0007E-06, 384946.10754494369
DataValue, 1.8900000000000001, 5.0006000000000009E-06, 377954.64544254687
DataValue, 1.855, 5.0005000000000007E-06, 370962.90370962897
DataValue, 1.82, 5.0006000000000009E-06, 363956.32524097105
DataValue, 1.7850000000000001, 5.0006000000000009E-06, 356957.16514018312
DataValue, 1.75, 5.0006000000000009E-06, 349958.00503939518
DataValue, 1.715, 5.0006000000000009E-06, 342958.8449386073
DataValue, 1.68, 5.0005000000000007E-06, 335966.40335966396
DataValue, 1.645, 5.0006000000000009E-06, 328960.52473703149
DataValue, 1.61, 5.0007E-06, 321954.92631031654
DataValue, 1.575, 5.0007E-06, 314955.90617313574
DataValue, 1.54, 5.0006000000000009E-06, 307963.0444346678
DataValue, 1.5050000000000001, 5.0005000000000007E-06, 300969.903009699
DataValue, 1.47, 5.0006000000000009E-06, 293964.724233092
DataValue, 1.435, 5.0005000000000007E-06, 286971.302869713
DataValue, 1.4000000000000001, 5.0006000000000009E-06, 279966.40403151617
DataValue, 1.365, 5.0006000000000009E-06, 272967.24393072829
DataValue, 1.33, 5.0007E-06, 265962.7652128702
DataValue, 1.295, 5.0006000000000009E-06, 258968.92372915245
DataValue, 1.26, 5.0006000000000009E-06, 251969.76362836454
DataValue, 1.225, 5.0005000000000007E-06, 244975.502449755
DataValue, 1.19, 5.0005000000000007E-06, 237976.202379762
DataValue, 1.155, 5.0006000000000009E-06, 230972.28332600085
DataValue, 1.12, 5.0005000000000007E-06, 223977.60223977602
DataValue, 1.085, 5.0006000000000009E-06, 216973.96312442503
DataValue, 1.05, 5.0006000000000009E-06, 209974.80302363713
DataValue, 1.0150000000000001, 5.0005000000000007E-06, 202979.70202979702
DataValue, 0.98, 5.0006000000000009E-06, 195976.48282206131
DataValue, 0.94500000000000006, 5.0006000000000009E-06, 188977.32272127344
DataValue, 0.91, 5.0006000000000009E-06, 181978.16262048553
DataValue, 0.875, 5.0006000000000009E-06, 174979.00251969759
DataValue, 0.84, 5.0005000000000007E-06, 167983.20167983198
DataValue, 0.805, 5.0005000000000007E-06, 160983.901609839
DataValue, 0.77, 5.0005000000000007E-06, 153984.601539846
DataValue, 0.735, 5.0006000000000009E-06, 146982.362116546
DataValue, 0.70000000000000007, 5.0006000000000009E-06, 139983.20201575809
DataValue, 0.665, 5.0006000000000009E-06, 132984.04191497018
DataValue, 0.63, 5.0006000000000009E-06, 125984.88181418227
DataValue, 0.595, 5.0006000000000009E-06, 118985.72171339436
DataValue, 0.56, 5.0006000000000009E-06, 111986.56161260649
DataValue, 0.525, 5.0006000000000009E-06, 104987.40151181856
DataValue, 0.49, 5.0006000000000009E-06, 97988.241411030656
DataValue, 0.455, 5.0006000000000009E-06, 90989.081310242764
DataValue, 0.42, 5.0005000000000007E-06, 83991.600839915991
DataValue, 0.385, 5.0005000000000007E-06, 76992.300769923
DataValue, 0.35000000000000003, 5.0005000000000007E-06, 69993.000699930009
DataValue, 0.315, 5.0005000000000007E-06, 62993.700629937
DataValue, 0.28, 5.0005000000000007E-06, 55994.400559944006
DataValue, 0.245, 5.0006000000000009E-06, 48994.120705515328
DataValue, 0.21, 5.0006000000000009E-06, 41994.960604727421
DataValue, 0.17500000000000002, 5.0005000000000007E-06, 34996.500349965005
DataValue, 0.14, 5.0006000000000009E-06, 27996.640403151621
DataValue, 0.105, 5.0007E-06, 20997.060411542381
DataValue, 0.07, 5.0005000000000007E-06, 13998.600139986002
DataValue, 0.035, 5.0006000000000009E-06, 6999.1601007879053
DataValue, 0, 1.1719799999999999E-08, 0